!Agilent N9918A: A.07.57
!Date: Wednesday, 05 August 2020 18:01:19
!Timezone: (GMT-08:00) Pacific Time (US & Canada)
!Model: N9918A
!Serial: MY53103598
!GPS Latitude: 
!GPS Longitude: 
!GPS TimeStamp: 0001-01-01 00:00:00Z
!GPS Seconds Since Last Read: 0
!CHECKSUM:0755725083
!Correction: S11()S21(Rdy)S12()S22()
!S2P File: Measurements:S11,S21,S12,S22:
# Hz S DB R 50
18000000000	0	0	-4.20033571211509	-72.0520166701391	0	0	0	0	
18010000000	0	0	-3.90507514973716	-102.513853243995	0	0	0	0	
18020000000	0	0	-3.29191493298765	-128.635240284875	0	0	0	0	
18030000000	0	0	-4.16501758304466	-162.816476873945	0	0	0	0	
18040000000	0	0	-3.39848775649158	170.578121192984	0	0	0	0	
18050000000	0	0	-4.45677359823183	144.037978367609	0	0	0	0	
18060000000	0	0	-4.06244393642496	112.298852728002	0	0	0	0	
18070000000	0	0	-3.82805143892849	79.9384895697092	0	0	0	0	
18080000000	0	0	-3.76322807582523	52.5912324024578	0	0	0	0	
18090000000	0	0	-3.46886462630238	19.9454908430639	0	0	0	0	
18100000000	0	0	-3.38379734958446	-10.123532769377	0	0	0	0	
18110000000	0	0	-3.60278201644894	-44.010900508153	0	0	0	0	
18120000000	0	0	-3.15180913896554	-64.8872870414429	0	0	0	0	
18130000000	0	0	-3.49577204520461	-100.063517558253	0	0	0	0	
18140000000	0	0	-3.72669439270203	-131.664229143626	0	0	0	0	
18150000000	0	0	-4.28103447900366	-162.044377684108	0	0	0	0	
18160000000	0	0	-3.10109829421576	168.761452737848	0	0	0	0	
18170000000	0	0	-3.26141315154941	140.895616943846	0	0	0	0	
18180000000	0	0	-3.83570926542746	109.277293286305	0	0	0	0	
18190000000	0	0	-3.63413814896588	78.9138690002749	0	0	0	0	
18200000000	0	0	-4.24699512468494	52.7828695069097	0	0	0	0	
18210000000	0	0	-3.65963754990201	21.3157330895554	0	0	0	0	
18220000000	0	0	-3.59382375173202	-5.29902756909735	0	0	0	0	
18230000000	0	0	-3.28526818411599	-37.9803823586845	0	0	0	0	
18240000000	0	0	-3.72107248863077	-66.7143927447026	0	0	0	0	
18250000000	0	0	-3.47551723513827	-98.969938886334	0	0	0	0	
18260000000	0	0	-3.12703171524833	-127.549838131728	0	0	0	0	
18270000000	0	0	-3.38572449015936	-157.800294700788	0	0	0	0	
18280000000	0	0	-3.74351547594573	168.650736760621	0	0	0	0	
18290000000	0	0	-3.60296251673102	139.926115199965	0	0	0	0	
18300000000	0	0	-3.33947435721282	111.496094760028	0	0	0	0	
18310000000	0	0	-4.1742552484166	81.5514792238761	0	0	0	0	
18320000000	0	0	-3.98277714150307	50.7012134837991	0	0	0	0	
18330000000	0	0	-3.88969335086911	22.97745467295	0	0	0	0	
18340000000	0	0	-3.50473796916858	-6.52149537593102	0	0	0	0	
18350000000	0	0	-3.91053022910876	-37.7400994413158	0	0	0	0	
18360000000	0	0	-4.06335603285349	-70.1103550421157	0	0	0	0	
18370000000	0	0	-3.41615241165352	-93.8424993700272	0	0	0	0	
18380000000	0	0	-3.46513958343031	-127.085496257273	0	0	0	0	
18390000000	0	0	-3.86241509066692	-152.393861081363	0	0	0	0	
18400000000	0	0	-3.92706792300453	169.750266555662	0	0	0	0	
18410000000	0	0	-3.86564795306482	144.167051022754	0	0	0	0	
18420000000	0	0	-3.71335664558772	115.316236646863	0	0	0	0	
18430000000	0	0	-4.50133660475464	86.0523830065558	0	0	0	0	
18440000000	0	0	-3.62905207157799	54.6498572427746	0	0	0	0	
18450000000	0	0	-4.31922420432624	22.3156348258699	0	0	0	0	
18460000000	0	0	-3.7358082472203	-6.92883765999647	0	0	0	0	
18470000000	0	0	-4.52118569970759	-37.5589571314998	0	0	0	0	
18480000000	0	0	-3.91292487813666	-67.6381202332372	0	0	0	0	
18490000000	0	0	-4.85260766390273	-95.6711471153768	0	0	0	0	
18500000000	0	0	-3.96528249452701	-123.362757413039	0	0	0	0	
18510000000	0	0	-3.98710422804839	-158.110616174756	0	0	0	0	
18520000000	0	0	-3.90484864137539	171.466596644079	0	0	0	0	
18530000000	0	0	-4.35443408646645	145.224496923083	0	0	0	0	
18540000000	0	0	-3.85859836821839	115.400948182513	0	0	0	0	
18550000000	0	0	-3.85762948294684	82.5331755521687	0	0	0	0	
18560000000	0	0	-3.44732485119081	52.3353007354883	0	0	0	0	
18570000000	0	0	-4.56053895641447	25.3417036656391	0	0	0	0	
18580000000	0	0	-4.44228142913293	-3.55238871613636	0	0	0	0	
18590000000	0	0	-4.10051598001766	-38.5433256179811	0	0	0	0	
18600000000	0	0	-4.28780483003564	-64.7727812618669	0	0	0	0	
18610000000	0	0	-3.50132824131867	-92.9685686731246	0	0	0	0	
18620000000	0	0	-3.89005260945238	-124.213023912527	0	0	0	0	
18630000000	0	0	-4.07860813808813	-150.454028537281	0	0	0	0	
18640000000	0	0	-4.01613891356631	-179.217735520883	0	0	0	0	
18650000000	0	0	-4.38679348386653	149.873201500256	0	0	0	0	
18660000000	0	0	-4.14254013771507	116.538965989477	0	0	0	0	
18670000000	0	0	-3.66636322242165	88.087537624986	0	0	0	0	
18680000000	0	0	-3.64515532009802	58.5390709141516	0	0	0	0	
18690000000	0	0	-4.10226061751828	27.9066662635199	0	0	0	0	
18700000000	0	0	-3.47811524580214	-5.52185881402358	0	0	0	0	
18710000000	0	0	-3.72786197897168	-31.7501414897358	0	0	0	0	
18720000000	0	0	-4.05629534849068	-61.9915084207961	0	0	0	0	
18730000000	0	0	-3.29501972712814	-94.8419664020405	0	0	0	0	
18740000000	0	0	-3.89244829405629	-122.570402674327	0	0	0	0	
18750000000	0	0	-3.778571552617	-150.817340261362	0	0	0	0	
18760000000	0	0	-3.93028115658907	-178.416597623858	0	0	0	0	
18770000000	0	0	-4.23306427940957	149.40690524789	0	0	0	0	
18780000000	0	0	-3.97672452302434	122.556581223772	0	0	0	0	
18790000000	0	0	-3.97976095065147	90.122773878961	0	0	0	0	
18800000000	0	0	-4.55462561947174	59.4251115560682	0	0	0	0	
18810000000	0	0	-4.28924952153475	30.2772692784505	0	0	0	0	
18820000000	0	0	-3.51755303719779	-0.30619839628214	0	0	0	0	
18830000000	0	0	-3.5673790972792	-33.8867086127528	0	0	0	0	
18840000000	0	0	-3.53365392292335	-60.6011841806312	0	0	0	0	
18850000000	0	0	-4.3177301859316	-87.7482702476876	0	0	0	0	
18860000000	0	0	-3.7027461108747	-123.374542573482	0	0	0	0	
18870000000	0	0	-3.16236837505543	-147.031807425111	0	0	0	0	
18880000000	0	0	-3.94523257269257	176.734151028846	0	0	0	0	
18890000000	0	0	-3.45495847891771	149.730656599097	0	0	0	0	
18900000000	0	0	-3.10865115605947	120.503978184427	0	0	0	0	
18910000000	0	0	-3.70537743103238	88.7336433542515	0	0	0	0	
18920000000	0	0	-3.58165101464231	57.613301693444	0	0	0	0	
18930000000	0	0	-3.90923996892095	31.9791500507046	0	0	0	0	
18940000000	0	0	-3.2919288160826	-4.02656079826884	0	0	0	0	
18950000000	0	0	-3.81325227560191	-27.312018138004	0	0	0	0	
18960000000	0	0	-3.65368262822329	-59.7450214616199	0	0	0	0	
18970000000	0	0	-4.17609804629946	-93.947875945122	0	0	0	0	
18980000000	0	0	-4.37870186650287	-119.373761484805	0	0	0	0	
18990000000	0	0	-4.06281429456726	-148.350658193506	0	0	0	0	
19000000000	0	0	-3.56388009395954	-178.001678756355	0	0	0	0	
19010000000	0	0	-4.08663210107829	147.009249299452	0	0	0	0	
19020000000	0	0	-3.86914385393955	116.930543971928	0	0	0	0	
19030000000	0	0	-4.25353626839293	87.1957371980148	0	0	0	0	
19040000000	0	0	-4.9062025168924	55.4358537295296	0	0	0	0	
19050000000	0	0	-3.32053030555832	30.8984631272708	0	0	0	0	
19060000000	0	0	-3.26215687530284	-2.88075877570012	0	0	0	0	
19070000000	0	0	-3.95574027811433	-32.9641036219341	0	0	0	0	
19080000000	0	0	-3.63381569460912	-62.6138571628793	0	0	0	0	
19090000000	0	0	-3.63873339464708	-93.5348121173786	0	0	0	0	
19100000000	0	0	-3.88293012878781	-122.86829422448	0	0	0	0	
19110000000	0	0	-3.70874050714899	-152.312922546021	0	0	0	0	
19120000000	0	0	-3.87886076182123	-178.168837442314	0	0	0	0	
19130000000	0	0	-4.17995153891332	145.704706857011	0	0	0	0	
19140000000	0	0	-4.07580964305547	113.822609794765	0	0	0	0	
19150000000	0	0	-4.63980752975911	89.6267399322662	0	0	0	0	
19160000000	0	0	-3.27159951865315	58.3747329970545	0	0	0	0	
19170000000	0	0	-4.43693396011647	29.1466767070844	0	0	0	0	
19180000000	0	0	-4.10116607159097	-1.90656960398952	0	0	0	0	
19190000000	0	0	-4.21125976350818	-30.7034494169666	0	0	0	0	
19200000000	0	0	-4.28930812360021	-57.5431018585796	0	0	0	0	
19210000000	0	0	-4.01160765163591	-88.8899660188083	0	0	0	0	
19220000000	0	0	-4.11447486719772	-117.216379250958	0	0	0	0	
19230000000	0	0	-4.53300850663523	-151.529159482542	0	0	0	0	
19240000000	0	0	-4.32666912065896	-173.426907312226	0	0	0	0	
19250000000	0	0	-3.92806967518866	150.059059838187	0	0	0	0	
19260000000	0	0	-4.26071684540493	120.448123760098	0	0	0	0	
19270000000	0	0	-3.96959995611231	94.102431322959	0	0	0	0	
19280000000	0	0	-4.43284004357873	68.9797762709953	0	0	0	0	
19290000000	0	0	-4.12284041403688	35.1066333193416	0	0	0	0	
19300000000	0	0	-4.26697821612407	4.62516999297688	0	0	0	0	
19310000000	0	0	-4.03326259110925	-27.1937594647799	0	0	0	0	
19320000000	0	0	-4.53940380919223	-52.9796372624274	0	0	0	0	
19330000000	0	0	-3.77963626973638	-88.0995976811433	0	0	0	0	
19340000000	0	0	-4.20401763079265	-111.002690645509	0	0	0	0	
19350000000	0	0	-3.29108210470918	-145.697707735266	0	0	0	0	
19360000000	0	0	-4.5429424334735	-171.245782446396	0	0	0	0	
19370000000	0	0	-4.00301390116207	154.106060188327	0	0	0	0	
19380000000	0	0	-4.50307011533747	125.25432002098	0	0	0	0	
19390000000	0	0	-3.91696957168954	100.489066417395	0	0	0	0	
19400000000	0	0	-4.2161688712658	65.7136409646358	0	0	0	0	
19410000000	0	0	-3.88255657682885	38.3810844413424	0	0	0	0	
19420000000	0	0	-4.36637476970526	10.0351486820409	0	0	0	0	
19430000000	0	0	-4.67924555390681	-22.8287024568429	0	0	0	0	
19440000000	0	0	-4.02218653492541	-55.348790170503	0	0	0	0	
19450000000	0	0	-4.80655345114685	-84.1224859679615	0	0	0	0	
19460000000	0	0	-3.60786246450667	-110.591250307571	0	0	0	0	
19470000000	0	0	-4.58994814357806	-142.310327946367	0	0	0	0	
19480000000	0	0	-4.43989576024849	-170.125221847866	0	0	0	0	
19490000000	0	0	-3.84628748151017	155.682933557557	0	0	0	0	
19500000000	0	0	-4.5347362092199	131.866833736211	0	0	0	0	
19510000000	0	0	-3.69794911684235	98.8839887942817	0	0	0	0	
19520000000	0	0	-4.0438267918959	71.3617186448262	0	0	0	0	
19530000000	0	0	-4.4232857088837	37.7580950072679	0	0	0	0	
19540000000	0	0	-3.6707030741744	10.8109727021458	0	0	0	0	
19550000000	0	0	-4.07446915174033	-14.091438618519	0	0	0	0	
19560000000	0	0	-4.44053446218145	-55.1029063575947	0	0	0	0	
19570000000	0	0	-4.45936918419369	-78.6926745360899	0	0	0	0	
19580000000	0	0	-3.94127499601251	-108.102323025444	0	0	0	0	
19590000000	0	0	-4.59815866264289	-137.553565729911	0	0	0	0	
19600000000	0	0	-4.10335215677184	-167.976128680456	0	0	0	0	
19610000000	0	0	-3.87503956978683	162.221527177986	0	0	0	0	
19620000000	0	0	-4.51374569969933	132.114035656536	0	0	0	0	
19630000000	0	0	-3.97449497989825	101.996742097524	0	0	0	0	
19640000000	0	0	-4.02673223232537	73.106753787118	0	0	0	0	
19650000000	0	0	-3.96101487021961	41.6842873387053	0	0	0	0	
19660000000	0	0	-3.86790700289205	13.3076256756589	0	0	0	0	
19670000000	0	0	-4.16925734267375	-16.2647813508033	0	0	0	0	
19680000000	0	0	-3.92888927663542	-47.1522793336945	0	0	0	0	
19690000000	0	0	-3.84543372248964	-74.1608845498105	0	0	0	0	
19700000000	0	0	-4.37036579172247	-103.432002666174	0	0	0	0	
19710000000	0	0	-4.89608552351238	-131.645297090027	0	0	0	0	
19720000000	0	0	-4.31099772888051	-164.710921461192	0	0	0	0	
19730000000	0	0	-4.52578484416618	156.835127422057	0	0	0	0	
19740000000	0	0	-4.52871848927041	133.243019386754	0	0	0	0	
19750000000	0	0	-4.68178053956905	103.912925103075	0	0	0	0	
19760000000	0	0	-4.10759483272052	73.0785710479773	0	0	0	0	
19770000000	0	0	-4.27720003651335	41.6933986944471	0	0	0	0	
19780000000	0	0	-4.23736366980496	16.9640568211023	0	0	0	0	
19790000000	0	0	-3.86513074861459	-15.0807035786316	0	0	0	0	
19800000000	0	0	-4.32992881862424	-45.8427150972355	0	0	0	0	
19810000000	0	0	-3.79313740536034	-73.8898741051957	0	0	0	0	
19820000000	0	0	-4.63656800971859	-105.374890910736	0	0	0	0	
19830000000	0	0	-4.08753594557432	-135.721185055003	0	0	0	0	
19840000000	0	0	-4.14034830165754	-165.049816361034	0	0	0	0	
19850000000	0	0	-4.58456090039604	165.120202029412	0	0	0	0	
19860000000	0	0	-4.60168626060725	133.164341581335	0	0	0	0	
19870000000	0	0	-4.72745114711921	104.921329669488	0	0	0	0	
19880000000	0	0	-4.19481226182705	71.1742702028354	0	0	0	0	
19890000000	0	0	-4.37267585499305	43.0328934707831	0	0	0	0	
19900000000	0	0	-4.83334831850334	13.0481241421019	0	0	0	0	
19910000000	0	0	-4.17384406410672	-16.786666117283	0	0	0	0	
19920000000	0	0	-4.28732619553229	-42.6190201479802	0	0	0	0	
19930000000	0	0	-4.53977437049078	-76.912320741486	0	0	0	0	
19940000000	0	0	-4.46215293856292	-106.387225802864	0	0	0	0	
19950000000	0	0	-4.04556822626905	-131.011948983026	0	0	0	0	
19960000000	0	0	-3.74677757170004	-166.434108171121	0	0	0	0	
19970000000	0	0	-4.85941684931676	162.069131508666	0	0	0	0	
19980000000	0	0	-4.21386092538388	138.755484602365	0	0	0	0	
19990000000	0	0	-4.83488143173488	101.097198692509	0	0	0	0	
20000000000	0	0	-4.30931042005195	76.6242734970193	0	0	0	0	
