!Agilent N9918A: A.07.57
!Date: Monday, 21 September 2020 17:35:40
!Timezone: (GMT-08:00) Pacific Time (US & Canada)
!Model: N9918A
!Serial: MY53103598
!GPS Latitude: 
!GPS Longitude: 
!GPS TimeStamp: 0001-01-01 00:00:00Z
!GPS Seconds Since Last Read: 0
!CHECKSUM:1125466832
!Correction: S11()S21(Rdy)S12()S22()
!S2P File: Measurements:S11,S21,S12,S22:
# Hz S DB R 50
18000000000	0	0	11.667939173597	-10.2366100606491	0	0	0	0	
18010000000	0	0	13.2577295481702	-118.055117835787	0	0	0	0	
18020000000	0	0	14.4981864318973	150.461624415236	0	0	0	0	
18030000000	0	0	15.4305135507838	63.435284530089	0	0	0	0	
18040000000	0	0	15.6994336770069	-18.4158571321078	0	0	0	0	
18050000000	0	0	15.7844896645181	-102.864132534996	0	0	0	0	
18060000000	0	0	15.3780627263457	167.466186460594	0	0	0	0	
18070000000	0	0	14.2797424883812	64.6734857774887	0	0	0	0	
18080000000	0	0	13.263922960677	-46.1165370814594	0	0	0	0	
18090000000	0	0	13.4047304751431	-157.022734667371	0	0	0	0	
18100000000	0	0	14.1563219565184	103.799612341887	0	0	0	0	
18110000000	0	0	14.8180726422854	14.8068311094933	0	0	0	0	
18120000000	0	0	15.1736752150537	-69.9690114321434	0	0	0	0	
18130000000	0	0	15.4364957416733	-155.293571871502	0	0	0	0	
18140000000	0	0	15.4277682790635	114.66739567828	0	0	0	0	
18150000000	0	0	15.1274551976675	12.9027545775962	0	0	0	0	
18160000000	0	0	14.6731235521297	-98.2788599528865	0	0	0	0	
18170000000	0	0	14.4216250337339	151.733769926162	0	0	0	0	
18180000000	0	0	14.8490527091066	54.4841226593497	0	0	0	0	
18190000000	0	0	15.1116466006967	-34.0836614992308	0	0	0	0	
18200000000	0	0	15.0749963085143	-115.168376643804	0	0	0	0	
18210000000	0	0	15.3123630764537	164.427653368772	0	0	0	0	
18220000000	0	0	15.1486430782682	81.0970433510557	0	0	0	0	
18230000000	0	0	14.8683431147558	-7.9259124058099	0	0	0	0	
18240000000	0	0	14.5443455660342	-108.382257025179	0	0	0	0	
18250000000	0	0	14.2214977742202	139.580142390609	0	0	0	0	
18260000000	0	0	14.4236962585095	29.8761846594331	0	0	0	0	
18270000000	0	0	14.9012706976132	-66.8088412555332	0	0	0	0	
18280000000	0	0	15.306654042622	-152.4920215068	0	0	0	0	
18290000000	0	0	15.6707219546904	126.810037578441	0	0	0	0	
18300000000	0	0	15.6889711308914	47.4379520947414	0	0	0	0	
18310000000	0	0	15.625317519523	-33.0269799497961	0	0	0	0	
18320000000	0	0	15.0771359207353	-118.379900009168	0	0	0	0	
18330000000	0	0	14.2323897453334	142.863433443174	0	0	0	0	
18340000000	0	0	13.5262273204501	30.8308960000035	0	0	0	0	
18350000000	0	0	13.8029615143929	-85.1675722155744	0	0	0	0	
18360000000	0	0	14.9617551234521	171.89052880058	0	0	0	0	
18370000000	0	0	15.465233485486	81.498079734938	0	0	0	0	
18380000000	0	0	15.9826245170613	-1.37217863327185	0	0	0	0	
18390000000	0	0	15.7396138360356	-83.0909890304409	0	0	0	0	
18400000000	0	0	15.3145858290107	-164.193083850181	0	0	0	0	
18410000000	0	0	14.5272848281447	109.336996770402	0	0	0	0	
18420000000	0	0	13.0669794116417	14.3570232573122	0	0	0	0	
18430000000	0	0	12.2339184099569	-93.5546522307176	0	0	0	0	
18440000000	0	0	13.2557208247719	149.831018859444	0	0	0	0	
18450000000	0	0	15.0630429507086	45.1012914097032	0	0	0	0	
18460000000	0	0	15.9107830312725	-47.8485055238526	0	0	0	0	
18470000000	0	0	15.8878220358118	-133.931762390573	0	0	0	0	
18480000000	0	0	15.6746717230486	144.136843448353	0	0	0	0	
18490000000	0	0	14.8415196392954	64.8167040692056	0	0	0	0	
18500000000	0	0	13.6428630508447	-17.4780858821093	0	0	0	0	
18510000000	0	0	12.6358037071206	-108.160867845835	0	0	0	0	
18520000000	0	0	11.8836036190489	147.733968802148	0	0	0	0	
18530000000	0	0	12.7187129645499	35.6374215581552	0	0	0	0	
18540000000	0	0	14.6680594101379	-68.900848484138	0	0	0	0	
18550000000	0	0	15.3935136450845	-163.520294631647	0	0	0	0	
18560000000	0	0	15.7062984356666	110.68033634885	0	0	0	0	
18570000000	0	0	15.6409288912248	28.866605989154	0	0	0	0	
18580000000	0	0	15.1101780517906	-50.630021057825	0	0	0	0	
18590000000	0	0	14.2122462665082	-130.000871927806	0	0	0	0	
18600000000	0	0	12.8086379991305	143.254486492074	0	0	0	0	
18610000000	0	0	11.5723841233322	51.3510444246906	0	0	0	0	
18620000000	0	0	11.2645721194576	-56.9814065614903	0	0	0	0	
18630000000	0	0	12.7887013455211	-163.02353625069	0	0	0	0	
18640000000	0	0	14.6724279352582	96.2939317987303	0	0	0	0	
18650000000	0	0	15.6450253935414	6.27989149862007	0	0	0	0	
18660000000	0	0	15.7790076099241	-82.4185684143009	0	0	0	0	
18670000000	0	0	15.5166265465562	-163.465032901452	0	0	0	0	
18680000000	0	0	15.1707787724641	116.205803321215	0	0	0	0	
18690000000	0	0	14.2964198099863	28.9598029793793	0	0	0	0	
18700000000	0	0	13.5290687800583	-62.3568828660803	0	0	0	0	
18710000000	0	0	13.1489434602179	-162.913438327578	0	0	0	0	
18720000000	0	0	14.1098687849519	90.2499090815516	0	0	0	0	
18730000000	0	0	14.9892759800954	-12.6074613454863	0	0	0	0	
18740000000	0	0	15.790957695898	-105.909249148226	0	0	0	0	
18750000000	0	0	15.5689190171751	165.182917488845	0	0	0	0	
18760000000	0	0	15.3800621091411	80.5038779001604	0	0	0	0	
18770000000	0	0	14.8124736419817	-3.07517200334351	0	0	0	0	
18780000000	0	0	14.4562507321069	-91.1754754055203	0	0	0	0	
18790000000	0	0	14.2472946990777	174.914618136542	0	0	0	0	
18800000000	0	0	14.1794268832533	71.5674296219616	0	0	0	0	
18810000000	0	0	14.8249265032832	-33.0462931739269	0	0	0	0	
18820000000	0	0	15.2000680999456	-131.467550546519	0	0	0	0	
18830000000	0	0	15.5531711615458	138.049701936603	0	0	0	0	
18840000000	0	0	15.4982291306772	53.0075763644962	0	0	0	0	
18850000000	0	0	15.1645792008199	-28.6441407725134	0	0	0	0	
18860000000	0	0	15.2824639295759	-112.039372125899	0	0	0	0	
18870000000	0	0	14.372251458732	158.963182096412	0	0	0	0	
18880000000	0	0	13.499583374708	61.8346349953532	0	0	0	0	
18890000000	0	0	12.9682848533269	-42.2633808035946	0	0	0	0	
18900000000	0	0	13.1085193301282	-146.482216747775	0	0	0	0	
18910000000	0	0	13.7004568564972	113.7972162844	0	0	0	0	
18920000000	0	0	15.1288728593832	26.94855532728	0	0	0	0	
18930000000	0	0	15.0486600192082	-50.8550264940865	0	0	0	0	
18940000000	0	0	16.2824613394125	-136.305860279368	0	0	0	0	
18950000000	0	0	15.8791823532283	138.954027005671	0	0	0	0	
18960000000	0	0	15.0045755137554	53.6091238485272	0	0	0	0	
18970000000	0	0	13.5503529361883	-34.7125858208344	0	0	0	0	
18980000000	0	0	12.6731608255165	-132.862637730872	0	0	0	0	
18990000000	0	0	12.3129944870965	121.746440704732	0	0	0	0	
19000000000	0	0	13.7570779358538	14.8410834718952	0	0	0	0	
19010000000	0	0	15.1091027337774	-83.0773070848939	0	0	0	0	
19020000000	0	0	16.0777551718009	-171.297302215999	0	0	0	0	
19030000000	0	0	16.0861320721812	105.085813854343	0	0	0	0	
19040000000	0	0	16.0909968520949	24.3459584806994	0	0	0	0	
19050000000	0	0	15.6186896823187	-56.1397020073053	0	0	0	0	
19060000000	0	0	15.0304498306314	-140.398686956661	0	0	0	0	
19070000000	0	0	14.3282149878252	128.879419063045	0	0	0	0	
19080000000	0	0	13.964651294558	26.9641536442684	0	0	0	0	
19090000000	0	0	13.9758139488941	-81.5625469161256	0	0	0	0	
19100000000	0	0	15.0150510029597	175.67644627224	0	0	0	0	
19110000000	0	0	15.8694376620491	82.3638703149457	0	0	0	0	
19120000000	0	0	16.3802340499298	-3.74663276220427	0	0	0	0	
19130000000	0	0	16.5757245572266	-85.226036926261	0	0	0	0	
19140000000	0	0	16.4750813660154	-167.138756970699	0	0	0	0	
19150000000	0	0	16.1144590941061	109.614976503184	0	0	0	0	
19160000000	0	0	15.2572177157356	22.0292014775108	0	0	0	0	
19170000000	0	0	14.5943497490265	-72.8571161665278	0	0	0	0	
19180000000	0	0	14.4747106478907	-174.91859783652	0	0	0	0	
19190000000	0	0	15.0725079984169	80.7545037693035	0	0	0	0	
19200000000	0	0	16.039066451376	-18.427752665869	0	0	0	0	
19210000000	0	0	16.6632619785503	-111.530211297884	0	0	0	0	
19220000000	0	0	16.768239758794	162.018221008194	0	0	0	0	
19230000000	0	0	16.662609879469	78.4078605841794	0	0	0	0	
19240000000	0	0	16.2090075867465	-1.38608310994772	0	0	0	0	
19250000000	0	0	15.5052041575044	-85.9049317260632	0	0	0	0	
19260000000	0	0	15.0033937275583	-174.077647284452	0	0	0	0	
19270000000	0	0	14.648796706291	91.1554191390909	0	0	0	0	
19280000000	0	0	15.209368011794	-13.45427401412	0	0	0	0	
19290000000	0	0	15.7597633139396	-117.226129407638	0	0	0	0	
19300000000	0	0	16.2375107286982	144.375762354853	0	0	0	0	
19310000000	0	0	16.5228509488897	55.0809369204376	0	0	0	0	
19320000000	0	0	16.301173288578	-27.4855975796202	0	0	0	0	
19330000000	0	0	16.0504149417189	-109.160079266064	0	0	0	0	
19340000000	0	0	15.8363569247164	169.031070167122	0	0	0	0	
19350000000	0	0	15.5301063432338	83.3611043646782	0	0	0	0	
19360000000	0	0	14.9877195805471	-7.31176599427281	0	0	0	0	
19370000000	0	0	14.9671268687667	-107.150596467819	0	0	0	0	
19380000000	0	0	14.7659531348653	151.967015855726	0	0	0	0	
19390000000	0	0	15.0613010470181	53.1421772099649	0	0	0	0	
19400000000	0	0	15.2742188867826	-38.4203686212777	0	0	0	0	
19410000000	0	0	15.5400043618786	-124.117413958163	0	0	0	0	
19420000000	0	0	15.7217835933729	152.062560538728	0	0	0	0	
19430000000	0	0	15.5848610681928	67.2159805022403	0	0	0	0	
19440000000	0	0	15.2973501203191	-16.3763973898767	0	0	0	0	
19450000000	0	0	14.6683551756351	-105.850825760495	0	0	0	0	
19460000000	0	0	14.216958493987	161.236908112689	0	0	0	0	
19470000000	0	0	13.9437259606146	63.8783965738156	0	0	0	0	
19480000000	0	0	14.0650288565413	-32.3684893306551	0	0	0	0	
19490000000	0	0	14.5174446760651	-127.606934754391	0	0	0	0	
19500000000	0	0	14.6029268240165	141.274718712471	0	0	0	0	
19510000000	0	0	15.1769189199009	53.7599940509702	0	0	0	0	
19520000000	0	0	15.0938660184443	-31.0097466988102	0	0	0	0	
19530000000	0	0	14.5422742260483	-116.164850795269	0	0	0	0	
19540000000	0	0	14.1300768885919	157.629918526291	0	0	0	0	
19550000000	0	0	14.0772298665328	67.6783482977212	0	0	0	0	
19560000000	0	0	14.2672376745585	-27.3253929910699	0	0	0	0	
19570000000	0	0	14.300108105962	-126.315951085033	0	0	0	0	
19580000000	0	0	14.8748463207981	136.361228974948	0	0	0	0	
19590000000	0	0	14.8411486052573	45.82369407463	0	0	0	0	
19600000000	0	0	14.9394256294599	-42.5649906684362	0	0	0	0	
19610000000	0	0	14.7539749601063	-126.68101371193	0	0	0	0	
19620000000	0	0	14.5360240396673	148.642726725794	0	0	0	0	
19630000000	0	0	14.3400414143723	62.1487187279897	0	0	0	0	
19640000000	0	0	14.1124883833352	-28.6305904207744	0	0	0	0	
19650000000	0	0	13.8693655376574	-122.042072650264	0	0	0	0	
19660000000	0	0	13.862084738504	141.754429566417	0	0	0	0	
19670000000	0	0	14.1555469739198	46.7174626080974	0	0	0	0	
19680000000	0	0	14.3923027750724	-45.1037217464488	0	0	0	0	
19690000000	0	0	14.7199188910827	-132.003742882643	0	0	0	0	
19700000000	0	0	14.7825646934037	140.872327106116	0	0	0	0	
19710000000	0	0	14.5552284845839	57.2428676189203	0	0	0	0	
19720000000	0	0	14.232079154737	-27.1155746485676	0	0	0	0	
19730000000	0	0	13.4473866727152	-111.201768718344	0	0	0	0	
19740000000	0	0	12.8525022795542	158.508692589123	0	0	0	0	
19750000000	0	0	13.180963717931	66.3781344009672	0	0	0	0	
19760000000	0	0	13.6271871242045	-29.8788158160608	0	0	0	0	
19770000000	0	0	14.602240526026	-126.872360984897	0	0	0	0	
19780000000	0	0	15.135084103583	137.468907647986	0	0	0	0	
19790000000	0	0	15.2473776756482	49.9020617225661	0	0	0	0	
19800000000	0	0	14.9443601350559	-36.3048536231864	0	0	0	0	
19810000000	0	0	14.5972711621246	-118.289750005694	0	0	0	0	
19820000000	0	0	14.0133764719866	158.212332662791	0	0	0	0	
19830000000	0	0	13.4154389006627	72.073215074222	0	0	0	0	
19840000000	0	0	12.721864945895	-19.5573813934721	0	0	0	0	
19850000000	0	0	12.578732143015	-118.47820868491	0	0	0	0	
19860000000	0	0	13.0711562543005	141.29403218972	0	0	0	0	
19870000000	0	0	14.1798526179548	42.586122988809	0	0	0	0	
19880000000	0	0	14.4033936436356	-51.10443504491	0	0	0	0	
19890000000	0	0	14.041930028487	-132.848471527153	0	0	0	0	
19900000000	0	0	14.5611846849851	144.515879530504	0	0	0	0	
19910000000	0	0	14.2850482334073	63.4831791361939	0	0	0	0	
19920000000	0	0	13.6997438038533	-19.3994505129071	0	0	0	0	
19930000000	0	0	12.8711988953151	-106.015826893561	0	0	0	0	
19940000000	0	0	11.9831025467537	159.91569085762	0	0	0	0	
19950000000	0	0	11.1593626666214	55.3404593303528	0	0	0	0	
19960000000	0	0	11.3153457839025	-43.6255020287385	0	0	0	0	
19970000000	0	0	12.3311597510453	-139.874451374838	0	0	0	0	
19980000000	0	0	13.2434403658943	133.409759458789	0	0	0	0	
19990000000	0	0	13.9672422199766	49.7487223860697	0	0	0	0	
20000000000	0	0	14.2389493841295	-30.0378016294288	0	0	0	0	
