!Agilent N9918A: A.07.57
!Date: Friday, 11 September 2020 12:36:24
!Timezone: (GMT-08:00) Pacific Time (US & Canada)
!Model: N9918A
!Serial: MY53103598
!GPS Latitude: 
!GPS Longitude: 
!GPS TimeStamp: 0001-01-01 00:00:00Z
!GPS Seconds Since Last Read: 0
!CHECKSUM:0240171588
!Correction: S11()S21(Rdy)S12()S22()
!S2P File: Measurements:S11,S21,S12,S22:
# Hz S DB R 50
18000000000	0	0	-23.8251734562628	139.810254785879	0	0	0	0	
18010000000	0	0	-23.798734423435	109.828935403615	0	0	0	0	
18020000000	0	0	-23.9247352465451	79.2318572515532	0	0	0	0	
18030000000	0	0	-23.6752936276923	49.1352848787699	0	0	0	0	
18040000000	0	0	-23.9298000131389	18.9333920307474	0	0	0	0	
18050000000	0	0	-23.7807583588908	-9.76400307063474	0	0	0	0	
18060000000	0	0	-23.6541428217531	-41.0080270094046	0	0	0	0	
18070000000	0	0	-23.4946425247063	-71.8343573592145	0	0	0	0	
18080000000	0	0	-23.663119717695	-102.064118932017	0	0	0	0	
18090000000	0	0	-23.5386044518586	-132.636672550325	0	0	0	0	
18100000000	0	0	-23.4911057138305	-162.176508670496	0	0	0	0	
18110000000	0	0	-23.5081408758079	167.501138911891	0	0	0	0	
18120000000	0	0	-23.4415552248205	136.449712337165	0	0	0	0	
18130000000	0	0	-23.5243317354086	107.506445617862	0	0	0	0	
18140000000	0	0	-23.3990971589242	76.8939591269919	0	0	0	0	
18150000000	0	0	-23.4748017366478	48.1569689125996	0	0	0	0	
18160000000	0	0	-23.6592245766858	17.1705751559403	0	0	0	0	
18170000000	0	0	-23.5900051940519	-14.4304748529074	0	0	0	0	
18180000000	0	0	-23.2503656353502	-44.076253126375	0	0	0	0	
18190000000	0	0	-23.3885038324409	-74.2383836871563	0	0	0	0	
18200000000	0	0	-23.45177906922	-104.539045723009	0	0	0	0	
18210000000	0	0	-23.3828461498733	-134.922550715337	0	0	0	0	
18220000000	0	0	-23.5869220762212	-165.030943068186	0	0	0	0	
18230000000	0	0	-23.4099474677157	165.224875780306	0	0	0	0	
18240000000	0	0	-23.4993026309116	134.452575773435	0	0	0	0	
18250000000	0	0	-23.421677247597	104.934563147877	0	0	0	0	
18260000000	0	0	-23.5882711804755	74.103442954627	0	0	0	0	
18270000000	0	0	-23.4434603741147	44.7973305302828	0	0	0	0	
18280000000	0	0	-23.5339991153217	13.5056629975946	0	0	0	0	
18290000000	0	0	-23.4409537630816	-16.828927322912	0	0	0	0	
18300000000	0	0	-23.5530573967882	-47.0995991504837	0	0	0	0	
18310000000	0	0	-23.5561315317766	-76.7426015805161	0	0	0	0	
18320000000	0	0	-23.5582662627867	-106.201125484514	0	0	0	0	
18330000000	0	0	-23.552284645102	-136.272601861284	0	0	0	0	
18340000000	0	0	-23.468181416444	-167.429375725446	0	0	0	0	
18350000000	0	0	-23.5342402549743	162.774461192762	0	0	0	0	
18360000000	0	0	-23.626912635306	132.048248135615	0	0	0	0	
18370000000	0	0	-23.7931360851317	102.975133379317	0	0	0	0	
18380000000	0	0	-23.6215908417106	73.2464638863656	0	0	0	0	
18390000000	0	0	-23.5672813313256	40.4915960997029	0	0	0	0	
18400000000	0	0	-23.7267486316991	11.4515691478829	0	0	0	0	
18410000000	0	0	-23.8477008488497	-19.9006570714526	0	0	0	0	
18420000000	0	0	-23.9479885207681	-48.0453596153633	0	0	0	0	
18430000000	0	0	-23.9003751379518	-78.8244814372678	0	0	0	0	
18440000000	0	0	-23.7225845143222	-107.517440609524	0	0	0	0	
18450000000	0	0	-23.7454266625702	-137.841827948354	0	0	0	0	
18460000000	0	0	-23.8700580675363	-169.056909262456	0	0	0	0	
18470000000	0	0	-23.78690103348	160.750990388592	0	0	0	0	
18480000000	0	0	-24.0340648948993	131.969998284072	0	0	0	0	
18490000000	0	0	-23.9252199235534	101.333490641453	0	0	0	0	
18500000000	0	0	-23.8073251183697	71.2129129172282	0	0	0	0	
18510000000	0	0	-23.7512715680196	40.5544852995421	0	0	0	0	
18520000000	0	0	-23.7026020547632	10.411005795059	0	0	0	0	
18530000000	0	0	-24.0923635878338	-19.8201954371382	0	0	0	0	
18540000000	0	0	-24.0974497602774	-49.0659375857833	0	0	0	0	
18550000000	0	0	-23.8549455027615	-78.7599740284232	0	0	0	0	
18560000000	0	0	-23.789392659825	-108.355636224523	0	0	0	0	
18570000000	0	0	-23.9601549830887	-139.759034441785	0	0	0	0	
18580000000	0	0	-23.8613818761868	-169.391422262017	0	0	0	0	
18590000000	0	0	-23.8098170610226	161.453715196379	0	0	0	0	
18600000000	0	0	-23.957787346059	130.232044095222	0	0	0	0	
18610000000	0	0	-23.8964908516237	101.712627198525	0	0	0	0	
18620000000	0	0	-23.8124871327912	70.688344127119	0	0	0	0	
18630000000	0	0	-23.8542802437432	39.2376379528722	0	0	0	0	
18640000000	0	0	-24.0148773982098	9.77642211787905	0	0	0	0	
18650000000	0	0	-24.0127836711467	-19.3273855603109	0	0	0	0	
18660000000	0	0	-24.0193391056247	-49.4253104261893	0	0	0	0	
18670000000	0	0	-23.8610238501243	-78.5205925469796	0	0	0	0	
18680000000	0	0	-23.8098872388279	-109.310230821092	0	0	0	0	
18690000000	0	0	-23.8031700074177	-140.268131545032	0	0	0	0	
18700000000	0	0	-23.9041379799434	-170.706223196959	0	0	0	0	
18710000000	0	0	-23.8685978294965	160.029267209574	0	0	0	0	
18720000000	0	0	-23.8626833989463	129.562073771002	0	0	0	0	
18730000000	0	0	-23.8370976132841	100.595983740001	0	0	0	0	
18740000000	0	0	-23.8343148400777	69.9810387866395	0	0	0	0	
18750000000	0	0	-24.0179173625896	40.0467341228044	0	0	0	0	
18760000000	0	0	-23.8563820688517	8.74318314109411	0	0	0	0	
18770000000	0	0	-23.9706821172776	-21.0960531772872	0	0	0	0	
18780000000	0	0	-23.8285826807516	-49.7707540076194	0	0	0	0	
18790000000	0	0	-23.9639090396527	-82.0507915922099	0	0	0	0	
18800000000	0	0	-23.6647574579769	-111.253242009489	0	0	0	0	
18810000000	0	0	-23.8822217786265	-141.899721665478	0	0	0	0	
18820000000	0	0	-23.8331766465508	-171.853280050416	0	0	0	0	
18830000000	0	0	-23.9029206238684	158.811189765533	0	0	0	0	
18840000000	0	0	-23.8448126806266	128.597040944076	0	0	0	0	
18850000000	0	0	-23.592216179246	98.0286768853579	0	0	0	0	
18860000000	0	0	-23.7806387382333	65.9140693820157	0	0	0	0	
18870000000	0	0	-23.8647426590419	37.1366670387575	0	0	0	0	
18880000000	0	0	-23.8947876575356	6.38209237421902	0	0	0	0	
18890000000	0	0	-23.8645538121257	-23.9287371564967	0	0	0	0	
18900000000	0	0	-23.6371268374957	-55.1028049794906	0	0	0	0	
18910000000	0	0	-23.7224217982376	-84.7672558759698	0	0	0	0	
18920000000	0	0	-23.8432344224625	-114.786265311775	0	0	0	0	
18930000000	0	0	-23.8112217836055	-144.973706419443	0	0	0	0	
18940000000	0	0	-23.7340498961484	-174.565491484459	0	0	0	0	
18950000000	0	0	-23.6553474574646	153.123676578099	0	0	0	0	
18960000000	0	0	-23.8410507230536	123.502868144693	0	0	0	0	
18970000000	0	0	-23.927817856265	93.251223185372	0	0	0	0	
18980000000	0	0	-23.8418314953801	62.4210646101693	0	0	0	0	
18990000000	0	0	-23.7687524024292	32.8211409576178	0	0	0	0	
19000000000	0	0	-23.7520611718836	2.68695651396916	0	0	0	0	
19010000000	0	0	-23.9140632729396	-28.0552883359535	0	0	0	0	
19020000000	0	0	-23.6916824837821	-58.921839860927	0	0	0	0	
19030000000	0	0	-23.7114934526069	-88.9220063675907	0	0	0	0	
19040000000	0	0	-23.8991383869418	-119.749806734306	0	0	0	0	
19050000000	0	0	-23.863522613397	-149.875315032751	0	0	0	0	
19060000000	0	0	-23.8568330488381	-179.25987048552	0	0	0	0	
19070000000	0	0	-23.7472479280417	149.170850482884	0	0	0	0	
19080000000	0	0	-23.8764630734169	118.140203259762	0	0	0	0	
19090000000	0	0	-24.1180747141972	88.1817117021401	0	0	0	0	
19100000000	0	0	-23.938146234306	58.1411601691132	0	0	0	0	
19110000000	0	0	-24.0237815403945	28.7153434698902	0	0	0	0	
19120000000	0	0	-23.8482634776588	-3.50183992742868	0	0	0	0	
19130000000	0	0	-23.8824937832627	-32.3723201963327	0	0	0	0	
19140000000	0	0	-23.9186566485813	-64.3308016446309	0	0	0	0	
19150000000	0	0	-23.9076746794575	-94.8247412192976	0	0	0	0	
19160000000	0	0	-23.9942993357428	-124.503554876808	0	0	0	0	
19170000000	0	0	-23.9011944556948	-153.387044722651	0	0	0	0	
19180000000	0	0	-23.9396501540449	174.852338170634	0	0	0	0	
19190000000	0	0	-23.9019728406742	144.083408361454	0	0	0	0	
19200000000	0	0	-23.9047763692011	113.959523532408	0	0	0	0	
19210000000	0	0	-24.0855612644973	82.9252849447239	0	0	0	0	
19220000000	0	0	-24.0066647844309	54.3445139255379	0	0	0	0	
19230000000	0	0	-23.8245912135685	23.4215092042275	0	0	0	0	
19240000000	0	0	-23.8143139538511	-6.35280624369784	0	0	0	0	
19250000000	0	0	-23.7667336674506	-37.0159774434717	0	0	0	0	
19260000000	0	0	-23.8070303039074	-65.8705359227129	0	0	0	0	
19270000000	0	0	-24.1147690294063	-95.7082947110123	0	0	0	0	
19280000000	0	0	-23.8634850707145	-124.234472276818	0	0	0	0	
19290000000	0	0	-23.9653325683926	-155.843166457395	0	0	0	0	
19300000000	0	0	-23.8698481454483	174.957435281677	0	0	0	0	
19310000000	0	0	-23.9614962635847	144.803556528274	0	0	0	0	
19320000000	0	0	-23.9238652198391	112.86883749413	0	0	0	0	
19330000000	0	0	-23.8982648102414	84.0217344412034	0	0	0	0	
19340000000	0	0	-23.9908725366591	55.4051281140932	0	0	0	0	
19350000000	0	0	-23.9398599695021	24.9858430742711	0	0	0	0	
19360000000	0	0	-23.919073355706	-4.94399249378975	0	0	0	0	
19370000000	0	0	-23.8086540092766	-34.9532451242012	0	0	0	0	
19380000000	0	0	-23.9537701169291	-64.5054755239764	0	0	0	0	
19390000000	0	0	-23.9052120642119	-95.8397391942356	0	0	0	0	
19400000000	0	0	-23.8084048722261	-124.002525502494	0	0	0	0	
19410000000	0	0	-23.8206153162233	-154.739604440276	0	0	0	0	
19420000000	0	0	-23.7134124420784	175.523001915527	0	0	0	0	
19430000000	0	0	-23.7410059916597	146.497112164288	0	0	0	0	
19440000000	0	0	-24.0560213300628	115.645801244579	0	0	0	0	
19450000000	0	0	-23.9731545232858	86.1599507250045	0	0	0	0	
19460000000	0	0	-23.8663775153213	56.1735888476796	0	0	0	0	
19470000000	0	0	-23.8229212636826	26.2691818673869	0	0	0	0	
19480000000	0	0	-23.7905492897047	-3.49317067391945	0	0	0	0	
19490000000	0	0	-23.8397193181261	-34.1797255836422	0	0	0	0	
19500000000	0	0	-23.6844622121986	-64.0695088087368	0	0	0	0	
19510000000	0	0	-23.7400628764881	-94.8166041202025	0	0	0	0	
19520000000	0	0	-23.7600597445065	-124.418035887385	0	0	0	0	
19530000000	0	0	-23.8498780522467	-154.363856234801	0	0	0	0	
19540000000	0	0	-23.7473847154198	175.270213267002	0	0	0	0	
19550000000	0	0	-23.839117707326	146.410159174672	0	0	0	0	
19560000000	0	0	-23.9195049941016	114.590292614597	0	0	0	0	
19570000000	0	0	-23.8143743351042	85.6595364060134	0	0	0	0	
19580000000	0	0	-23.6835690074911	56.1466591605	0	0	0	0	
19590000000	0	0	-23.5660435014964	25.8769067451729	0	0	0	0	
19600000000	0	0	-23.6854461462763	-3.8212819267769	0	0	0	0	
19610000000	0	0	-23.7764025131577	-33.7338275557119	0	0	0	0	
19620000000	0	0	-23.7229666814479	-63.6887028920596	0	0	0	0	
19630000000	0	0	-23.7659413466482	-93.5339635819764	0	0	0	0	
19640000000	0	0	-23.8278716871853	-124.354379843884	0	0	0	0	
19650000000	0	0	-23.7997721221111	-155.082559444209	0	0	0	0	
19660000000	0	0	-23.9043466672458	174.603969010146	0	0	0	0	
19670000000	0	0	-23.7954892167297	145.595284987366	0	0	0	0	
19680000000	0	0	-24.0755550023948	115.427549933717	0	0	0	0	
19690000000	0	0	-24.0309331492301	85.6142716786517	0	0	0	0	
19700000000	0	0	-23.7761477703065	56.9156044858757	0	0	0	0	
19710000000	0	0	-24.0528252687221	26.5656081446616	0	0	0	0	
19720000000	0	0	-24.1029519435618	-2.94446594589008	0	0	0	0	
19730000000	0	0	-23.9516609026555	-32.8328033436932	0	0	0	0	
19740000000	0	0	-24.0046396245446	-62.7564247999203	0	0	0	0	
19750000000	0	0	-23.9665095023361	-94.2707719831732	0	0	0	0	
19760000000	0	0	-24.0193085275904	-124.23351037814	0	0	0	0	
19770000000	0	0	-23.8672930409956	-154.174101117137	0	0	0	0	
19780000000	0	0	-24.1642939580974	176.509759054077	0	0	0	0	
19790000000	0	0	-24.1443563557398	146.483599871188	0	0	0	0	
19800000000	0	0	-24.1268485476765	115.773257938906	0	0	0	0	
19810000000	0	0	-24.0706333922429	84.4375235715633	0	0	0	0	
19820000000	0	0	-24.0873471929449	55.8117858152101	0	0	0	0	
19830000000	0	0	-24.4172532037706	24.773676132457	0	0	0	0	
19840000000	0	0	-24.1964043701072	-4.76800230482514	0	0	0	0	
19850000000	0	0	-24.0438705026197	-35.3042915871687	0	0	0	0	
19860000000	0	0	-24.0606173373437	-64.464188576453	0	0	0	0	
19870000000	0	0	-24.1785618065277	-94.9314661576268	0	0	0	0	
19880000000	0	0	-24.2621169257058	-125.47220083311	0	0	0	0	
19890000000	0	0	-24.0078854100871	-155.650213175011	0	0	0	0	
19900000000	0	0	-24.1821629942521	173.88756247691	0	0	0	0	
19910000000	0	0	-24.163592534175	144.160654228765	0	0	0	0	
19920000000	0	0	-24.2271914802127	112.856519219064	0	0	0	0	
19930000000	0	0	-24.4860107455215	82.5542951593136	0	0	0	0	
19940000000	0	0	-24.4239934764932	52.5439478182521	0	0	0	0	
19950000000	0	0	-24.4980419411094	24.2106950650017	0	0	0	0	
19960000000	0	0	-24.3467609282804	-5.54788364938495	0	0	0	0	
19970000000	0	0	-24.3813654159783	-36.8272935102404	0	0	0	0	
19980000000	0	0	-24.1974915489706	-67.2949286685953	0	0	0	0	
19990000000	0	0	-24.2660153876286	-97.4726240136092	0	0	0	0	
20000000000	0	0	-24.0526159790212	-128.750709122433	0	0	0	0	
