!Agilent N9918A: A.07.57
!Date: Monday, 21 September 2020 17:25:54
!Timezone: (GMT-08:00) Pacific Time (US & Canada)
!Model: N9918A
!Serial: MY53103598
!GPS Latitude: 
!GPS Longitude: 
!GPS TimeStamp: 0001-01-01 00:00:00Z
!GPS Seconds Since Last Read: 0
!CHECKSUM:0509019056
!Correction: S11()S21(Rdy)S12()S22()
!S2P File: Measurements:S11,S21,S12,S22:
# Hz S DB R 50
18000000000	0	0	11.8574754320388	-54.4772969527161	0	0	0	0	
18010000000	0	0	13.244177753198	-163.299093299556	0	0	0	0	
18020000000	0	0	13.3534035252728	100.303966849171	0	0	0	0	
18030000000	0	0	13.2620491964974	2.00310324226236	0	0	0	0	
18040000000	0	0	12.6057971129966	-108.170012086029	0	0	0	0	
18050000000	0	0	12.1163557893718	125.64867640128	0	0	0	0	
18060000000	0	0	12.6906232336026	2.4758913931029	0	0	0	0	
18070000000	0	0	13.349140854362	-109.071970286668	0	0	0	0	
18080000000	0	0	13.6897271748297	151.378859134642	0	0	0	0	
18090000000	0	0	13.7553995566208	50.2610745490609	0	0	0	0	
18100000000	0	0	13.734607699877	-57.5507537804235	0	0	0	0	
18110000000	0	0	13.316698908417	179.932838719159	0	0	0	0	
18120000000	0	0	13.4198845516183	55.5812565556102	0	0	0	0	
18130000000	0	0	13.6918427245899	-55.8961763415075	0	0	0	0	
18140000000	0	0	14.0429856666241	-159.051513480041	0	0	0	0	
18150000000	0	0	14.0292830836194	101.319501742158	0	0	0	0	
18160000000	0	0	14.2358107781943	-9.69001687082963	0	0	0	0	
18170000000	0	0	13.8874319961897	-135.013943674447	0	0	0	0	
18180000000	0	0	13.8779108514778	98.0383092205698	0	0	0	0	
18190000000	0	0	14.0552433037359	-17.488986589238	0	0	0	0	
18200000000	0	0	13.7286435324463	-117.399409088353	0	0	0	0	
18210000000	0	0	13.5267688500813	144.979044509598	0	0	0	0	
18220000000	0	0	13.3101896860584	40.563118319068	0	0	0	0	
18230000000	0	0	13.4247055877807	-80.0899632571063	0	0	0	0	
18240000000	0	0	13.5239610592753	149.725719652107	0	0	0	0	
18250000000	0	0	13.7843931531419	34.9986554595871	0	0	0	0	
18260000000	0	0	13.792589379951	-65.2727342258605	0	0	0	0	
18270000000	0	0	13.9935169511984	-158.611725129434	0	0	0	0	
18280000000	0	0	13.7785538535203	105.468182732716	0	0	0	0	
18290000000	0	0	13.6140676477561	-2.63917352976902	0	0	0	0	
18300000000	0	0	13.6444655295746	-127.962203737641	0	0	0	0	
18310000000	0	0	14.1733038402774	104.236979207615	0	0	0	0	
18320000000	0	0	14.5700283737122	-5.46793470535351	0	0	0	0	
18330000000	0	0	14.5415096227667	-102.607961117268	0	0	0	0	
18340000000	0	0	14.1202320827916	166.913532507189	0	0	0	0	
18350000000	0	0	13.9391033783723	69.7011726505297	0	0	0	0	
18360000000	0	0	13.2657747717655	-41.3971058957656	0	0	0	0	
18370000000	0	0	13.460543578562	-173.870083290675	0	0	0	0	
18380000000	0	0	14.1469098634971	55.2275524086648	0	0	0	0	
18390000000	0	0	14.0413829902934	-51.0823166510113	0	0	0	0	
18400000000	0	0	13.9304430957197	-146.955574530065	0	0	0	0	
18410000000	0	0	13.4465979377199	122.329249732943	0	0	0	0	
18420000000	0	0	12.8278061577724	19.9057287413663	0	0	0	0	
18430000000	0	0	12.4248034804656	-104.722093071032	0	0	0	0	
18440000000	0	0	13.3110342593039	117.444168844625	0	0	0	0	
18450000000	0	0	14.3604480606632	-1.78895313710708	0	0	0	0	
18460000000	0	0	14.4075025255221	-102.866647953635	0	0	0	0	
18470000000	0	0	14.3007053569314	164.623939091552	0	0	0	0	
18480000000	0	0	13.5595611407347	68.5346710438279	0	0	0	0	
18490000000	0	0	12.9944205437622	-44.0895403443639	0	0	0	0	
18500000000	0	0	13.0352002293649	-177.564007449673	0	0	0	0	
18510000000	0	0	14.2515436836307	54.1655725536107	0	0	0	0	
18520000000	0	0	14.6887503181602	-52.5026701720152	0	0	0	0	
18530000000	0	0	14.4435973201604	-145.269259562779	0	0	0	0	
18540000000	0	0	13.9701126915029	124.555748552781	0	0	0	0	
18550000000	0	0	13.320982818901	28.1295917024699	0	0	0	0	
18560000000	0	0	12.874057880621	-84.7481996134682	0	0	0	0	
18570000000	0	0	13.3370602918456	143.260142881159	0	0	0	0	
18580000000	0	0	14.2116402528243	19.2402576082525	0	0	0	0	
18590000000	0	0	14.3291194345703	-86.7962547218565	0	0	0	0	
18600000000	0	0	13.9513982194347	-177.798595271031	0	0	0	0	
18610000000	0	0	13.5106860234849	93.2051851415656	0	0	0	0	
18620000000	0	0	12.7503688101261	-0.441662045330718	0	0	0	0	
18630000000	0	0	12.3313936672639	-112.732258514034	0	0	0	0	
18640000000	0	0	13.0489705245374	114.86830900282	0	0	0	0	
18650000000	0	0	14.3398333659484	-9.33826539669815	0	0	0	0	
18660000000	0	0	14.8961051121624	-113.573045818782	0	0	0	0	
18670000000	0	0	14.6062763910592	152.745843339689	0	0	0	0	
18680000000	0	0	14.2742336865633	60.1101068646925	0	0	0	0	
18690000000	0	0	13.8488508461391	-41.4031445000742	0	0	0	0	
18700000000	0	0	13.4679284426195	-163.636503979265	0	0	0	0	
18710000000	0	0	13.8862373250535	64.0815306195833	0	0	0	0	
18720000000	0	0	14.4007760683151	-53.2884465218156	0	0	0	0	
18730000000	0	0	14.3810971806347	-154.071894575637	0	0	0	0	
18740000000	0	0	14.0739848817777	112.171360172212	0	0	0	0	
18750000000	0	0	13.8731051561024	18.0560322467514	0	0	0	0	
18760000000	0	0	13.3793495427418	-88.0754392517335	0	0	0	0	
18770000000	0	0	13.0097971364208	149.282933504807	0	0	0	0	
18780000000	0	0	13.6627203187981	21.1403346299215	0	0	0	0	
18790000000	0	0	14.0742887687875	-90.7370172334888	0	0	0	0	
18800000000	0	0	14.0796987532989	169.967250995859	0	0	0	0	
18810000000	0	0	14.0282758890909	77.2080899542305	0	0	0	0	
18820000000	0	0	13.5663849296287	-16.8455192703808	0	0	0	0	
18830000000	0	0	12.8671729948795	-126.363535981612	0	0	0	0	
18840000000	0	0	12.8255554575992	110.89732993813	0	0	0	0	
18850000000	0	0	13.6609092391522	-12.1301333682132	0	0	0	0	
18860000000	0	0	14.301147256809	-122.59883549876	0	0	0	0	
18870000000	0	0	14.5570715761984	139.316237463914	0	0	0	0	
18880000000	0	0	14.384875871836	44.0184029841895	0	0	0	0	
18890000000	0	0	13.7190381778863	-56.221729115363	0	0	0	0	
18900000000	0	0	13.2942169717803	-167.258861731639	0	0	0	0	
18910000000	0	0	12.8473954961885	67.6254065962329	0	0	0	0	
18920000000	0	0	13.7137663323286	-50.2940570843872	0	0	0	0	
18930000000	0	0	13.7150775491534	-152.820337199519	0	0	0	0	
18940000000	0	0	14.2802066012336	105.989512836246	0	0	0	0	
18950000000	0	0	14.0683745522643	11.1063029582246	0	0	0	0	
18960000000	0	0	13.5985183623627	-89.739998899999	0	0	0	0	
18970000000	0	0	13.2622372990914	158.402227012506	0	0	0	0	
18980000000	0	0	13.0856122340148	38.2908936378985	0	0	0	0	
18990000000	0	0	13.6243182343979	-78.7449162143666	0	0	0	0	
19000000000	0	0	13.7357167903388	177.478281945838	0	0	0	0	
19010000000	0	0	13.9267858934375	79.9173891939558	0	0	0	0	
19020000000	0	0	14.0262072196518	-16.3647829244857	0	0	0	0	
19030000000	0	0	13.9723023887814	-118.861085844078	0	0	0	0	
19040000000	0	0	13.8872050106462	127.26838037603	0	0	0	0	
19050000000	0	0	14.0085826155328	5.72255280711601	0	0	0	0	
19060000000	0	0	13.9373231515286	-108.780985755737	0	0	0	0	
19070000000	0	0	14.2505526360279	146.619802234712	0	0	0	0	
19080000000	0	0	14.233757010657	48.5362180179699	0	0	0	0	
19090000000	0	0	14.2071019922109	-50.4893697354567	0	0	0	0	
19100000000	0	0	14.1441346972209	-157.874875085221	0	0	0	0	
19110000000	0	0	13.8243925193837	86.0011681197174	0	0	0	0	
19120000000	0	0	13.7817513996174	-31.4603125409902	0	0	0	0	
19130000000	0	0	13.5801290925656	-142.652636890384	0	0	0	0	
19140000000	0	0	13.825200714875	117.312782427517	0	0	0	0	
19150000000	0	0	14.0538921963415	19.6103334376438	0	0	0	0	
19160000000	0	0	14.2549886131627	-79.4617239238376	0	0	0	0	
19170000000	0	0	14.4696718093551	172.456440767333	0	0	0	0	
19180000000	0	0	13.96234831592	55.6373561147281	0	0	0	0	
19190000000	0	0	13.9111082253928	-59.8533606951495	0	0	0	0	
19200000000	0	0	13.8651166519396	-166.873224061105	0	0	0	0	
19210000000	0	0	13.8507949130553	95.3628883323161	0	0	0	0	
19220000000	0	0	14.0526906271445	-1.23008804322448	0	0	0	0	
19230000000	0	0	14.4155479149831	-102.478037093159	0	0	0	0	
19240000000	0	0	14.5241579630237	148.205047392467	0	0	0	0	
19250000000	0	0	14.3762804083642	30.6763937816358	0	0	0	0	
19260000000	0	0	14.1650078407666	-83.3864683899647	0	0	0	0	
19270000000	0	0	14.0795217686548	170.120894440586	0	0	0	0	
19280000000	0	0	14.1500996788599	72.3911286332323	0	0	0	0	
19290000000	0	0	14.394536577419	-26.0440988593288	0	0	0	0	
19300000000	0	0	14.6410669158722	-130.913926321386	0	0	0	0	
19310000000	0	0	14.435497010543	117.556195865705	0	0	0	0	
19320000000	0	0	14.1979729994747	-2.00739577648203	0	0	0	0	
19330000000	0	0	13.3773406851453	-114.446428009695	0	0	0	0	
19340000000	0	0	13.2695850480713	142.870106806031	0	0	0	0	
19350000000	0	0	13.6243794524736	46.4268700747593	0	0	0	0	
19360000000	0	0	13.9338871391812	-50.7494305791934	0	0	0	0	
19370000000	0	0	13.8669851059525	-154.745211521504	0	0	0	0	
19380000000	0	0	13.6835926074445	92.5265996183946	0	0	0	0	
19390000000	0	0	13.2754230645042	-24.2353444668036	0	0	0	0	
19400000000	0	0	13.2985150240054	-134.017688924044	0	0	0	0	
19410000000	0	0	13.4329670588215	124.029084243733	0	0	0	0	
19420000000	0	0	13.668570822981	29.5975277360847	0	0	0	0	
19430000000	0	0	13.8966441813231	-67.4660194379948	0	0	0	0	
19440000000	0	0	13.791036309453	-169.788037419772	0	0	0	0	
19450000000	0	0	13.6408681182003	79.2751129659092	0	0	0	0	
19460000000	0	0	13.3511615689811	-35.48720411744	0	0	0	0	
19470000000	0	0	13.2669187951505	-146.928352488847	0	0	0	0	
19480000000	0	0	13.4848017051866	110.709312405529	0	0	0	0	
19490000000	0	0	13.8720857908177	13.7132521475995	0	0	0	0	
19500000000	0	0	13.9248617425338	-83.0269111326206	0	0	0	0	
19510000000	0	0	13.6268223103289	174.192951828042	0	0	0	0	
19520000000	0	0	13.0520381779649	65.7373730778934	0	0	0	0	
19530000000	0	0	12.7100498189272	-52.1303702785032	0	0	0	0	
19540000000	0	0	12.8361932469252	-163.611370645839	0	0	0	0	
19550000000	0	0	13.2735362384251	89.0404268201249	0	0	0	0	
19560000000	0	0	13.4887277499328	-7.37540006175811	0	0	0	0	
19570000000	0	0	13.432761816164	-104.802044693279	0	0	0	0	
19580000000	0	0	13.1458253718136	151.82403792966	0	0	0	0	
19590000000	0	0	12.6711349536548	42.6291524682485	0	0	0	0	
19600000000	0	0	12.6864830999722	-73.7206615814135	0	0	0	0	
19610000000	0	0	13.3875285396341	172.178522261454	0	0	0	0	
19620000000	0	0	13.9412496106168	67.8226074200488	0	0	0	0	
19630000000	0	0	14.1549582806526	-29.5514053776115	0	0	0	0	
19640000000	0	0	13.8233196235694	-127.235881276226	0	0	0	0	
19650000000	0	0	13.5714719065031	133.49730699498	0	0	0	0	
19660000000	0	0	13.0993583446101	26.9379401009062	0	0	0	0	
19670000000	0	0	13.0234422496323	-86.8605931188917	0	0	0	0	
19680000000	0	0	13.6081115141004	159.340836034566	0	0	0	0	
19690000000	0	0	14.1780348513941	53.1386525961732	0	0	0	0	
19700000000	0	0	14.043624936265	-46.2300187830219	0	0	0	0	
19710000000	0	0	13.8142104367846	-139.417345223656	0	0	0	0	
19720000000	0	0	13.3666508500321	123.229736634085	0	0	0	0	
19730000000	0	0	12.6418566579299	23.0284408356451	0	0	0	0	
19740000000	0	0	12.4795005084371	-85.7970459364811	0	0	0	0	
19750000000	0	0	13.1726443206741	158.434446309997	0	0	0	0	
19760000000	0	0	13.5496857408063	48.3630113773358	0	0	0	0	
19770000000	0	0	13.793740903666	-54.6349387564863	0	0	0	0	
19780000000	0	0	13.4113241047503	-151.629146471198	0	0	0	0	
19790000000	0	0	12.9128452231139	114.641216816398	0	0	0	0	
19800000000	0	0	12.6121583163327	14.2070784100696	0	0	0	0	
19810000000	0	0	12.4823822479311	-95.2917717240076	0	0	0	0	
19820000000	0	0	12.7711873520564	144.639243226705	0	0	0	0	
19830000000	0	0	13.7213466043364	29.4587932379953	0	0	0	0	
19840000000	0	0	13.8575226017736	-76.7535931145966	0	0	0	0	
19850000000	0	0	13.5502812188104	-174.770588222514	0	0	0	0	
19860000000	0	0	13.3299645082851	89.6365747213266	0	0	0	0	
19870000000	0	0	12.8262057838896	-10.78628556218	0	0	0	0	
19880000000	0	0	12.7759528130331	-121.125881854324	0	0	0	0	
19890000000	0	0	12.9029068500415	117.934592852529	0	0	0	0	
19900000000	0	0	13.5466032807841	2.74209293734461	0	0	0	0	
19910000000	0	0	13.4658337953978	-98.8576079214084	0	0	0	0	
19920000000	0	0	13.0297771266937	165.398646816521	0	0	0	0	
19930000000	0	0	12.7704875046079	74.5670066333723	0	0	0	0	
19940000000	0	0	12.6456609992004	-21.0516965592114	0	0	0	0	
19950000000	0	0	12.1880061287965	-126.491227632105	0	0	0	0	
19960000000	0	0	12.6938563649448	118.96092776403	0	0	0	0	
19970000000	0	0	12.8804811805524	2.30796322210012	0	0	0	0	
19980000000	0	0	12.9965945458966	-102.712632144576	0	0	0	0	
19990000000	0	0	12.8510852751727	161.695946393154	0	0	0	0	
20000000000	0	0	12.7386858742982	70.3013123251159	0	0	0	0	
