!Agilent N9918A: A.07.57
!Date: Monday, 27 July 2020 18:12:01
!Timezone: (GMT-08:00) Pacific Time (US & Canada)
!Model: N9918A
!Serial: MY53103598
!GPS Latitude: 
!GPS Longitude: 
!GPS TimeStamp: 0001-01-01 00:00:00Z
!GPS Seconds Since Last Read: 0
!CHECKSUM:1461975971
!Correction: S11()S21(Rdy)S12()S22()
!S2P File: Measurements:S11,S21,S12,S22:
# Hz S DB R 50
18000000000	0	0	-15.7285047405339	-43.4531990744967	0	0	0	0	
18010000000	0	0	-16.2491975045232	-152.789539871808	0	0	0	0	
18020000000	0	0	-16.3581896995967	105.56694806551	0	0	0	0	
18030000000	0	0	-15.6068175355504	8.29028201440064	0	0	0	0	
18040000000	0	0	-13.0173536156786	-92.250024991589	0	0	0	0	
18050000000	0	0	-12.9550050343737	148.688562035351	0	0	0	0	
18060000000	0	0	-11.7942786006187	46.4458202392132	0	0	0	0	
18070000000	0	0	-12.5166251144266	-61.8886480527358	0	0	0	0	
18080000000	0	0	-12.0201293353773	-158.027622270742	0	0	0	0	
18090000000	0	0	-12.1654275080887	109.239971707135	0	0	0	0	
18100000000	0	0	-11.2860064737618	-3.39933629383208	0	0	0	0	
18110000000	0	0	-11.7375551967198	-104.199611792894	0	0	0	0	
18120000000	0	0	-12.8524294990557	145.56797889781	0	0	0	0	
18130000000	0	0	-11.8978067268664	49.050477483375	0	0	0	0	
18140000000	0	0	-16.4318113070204	-51.6344223225359	0	0	0	0	
18150000000	0	0	-17.5994028717468	-153.809440298323	0	0	0	0	
18160000000	0	0	-16.52806388118	116.125326874355	0	0	0	0	
18170000000	0	0	-13.7322366822422	-3.51223305682975	0	0	0	0	
18180000000	0	0	-17.833595236099	-112.432650475804	0	0	0	0	
18190000000	0	0	-19.6093239996609	134.008600304965	0	0	0	0	
18200000000	0	0	-28.0456624950084	24.9935506421392	0	0	0	0	
18210000000	0	0	-22.8131667381063	-28.3796765889213	0	0	0	0	
18220000000	0	0	-27.4824844622004	-79.44136755946	0	0	0	0	
18230000000	0	0	-22.2697385350989	-91.192142048859	0	0	0	0	
18240000000	0	0	-17.7508842184889	132.158317992165	0	0	0	0	
18250000000	0	0	-17.2193127234281	76.2223796219072	0	0	0	0	
18260000000	0	0	-15.4433524342534	-50.4449218270856	0	0	0	0	
18270000000	0	0	-13.156500107492	-138.673043228776	0	0	0	0	
18280000000	0	0	-12.8920929760985	122.651446671402	0	0	0	0	
18290000000	0	0	-11.0454407425861	19.3867410397765	0	0	0	0	
18300000000	0	0	-8.07239463713417	-79.7262907404622	0	0	0	0	
18310000000	0	0	-8.28275534703371	170.111841312968	0	0	0	0	
18320000000	0	0	-7.24538281809226	62.7546915803517	0	0	0	0	
18330000000	0	0	-6.45588140314094	-40.5064130938168	0	0	0	0	
18340000000	0	0	-5.67752777202944	-146.180466747149	0	0	0	0	
18350000000	0	0	-5.06930126724097	125.693824975816	0	0	0	0	
18360000000	0	0	-4.44740131618204	17.2981561282861	0	0	0	0	
18370000000	0	0	-2.77818775707029	-80.604495218014	0	0	0	0	
18380000000	0	0	-1.60344296460378	168.625071084556	0	0	0	0	
18390000000	0	0	-0.829948232816716	57.1791398130261	0	0	0	0	
18400000000	0	0	-1.69288521307438	-51.2686381987298	0	0	0	0	
18410000000	0	0	-2.7909389009577	-156.927288303215	0	0	0	0	
18420000000	0	0	-2.50524575068769	107.85997784289	0	0	0	0	
18430000000	0	0	-2.48063265344635	6.64615661119801	0	0	0	0	
18440000000	0	0	-2.68938640799725	-96.8540087535859	0	0	0	0	
18450000000	0	0	-2.71592027959571	157.538800384465	0	0	0	0	
18460000000	0	0	-3.22871165013307	57.8946202560876	0	0	0	0	
18470000000	0	0	-4.00291208363713	-47.2278661470197	0	0	0	0	
18480000000	0	0	-4.00645036821167	-141.591331041692	0	0	0	0	
18490000000	0	0	-4.51561008219238	114.957633549358	0	0	0	0	
18500000000	0	0	-4.49636701155139	10.4497212495284	0	0	0	0	
18510000000	0	0	-4.16177328974334	-86.1960095088019	0	0	0	0	
18520000000	0	0	-4.86947411016283	166.897839995508	0	0	0	0	
18530000000	0	0	-5.0059333000613	70.0655755027697	0	0	0	0	
18540000000	0	0	-6.59405068174216	-27.9519367039225	0	0	0	0	
18550000000	0	0	-7.04633481323613	-123.672830760877	0	0	0	0	
18560000000	0	0	-7.00446754992087	126.919079388293	0	0	0	0	
18570000000	0	0	-8.0077765064787	25.9012509096616	0	0	0	0	
18580000000	0	0	-8.01185032910222	-67.7496086804311	0	0	0	0	
18590000000	0	0	-8.95654069176926	179.047124467222	0	0	0	0	
18600000000	0	0	-11.0097324599989	89.3945835522665	0	0	0	0	
18610000000	0	0	-11.3449633706192	-12.9668652465787	0	0	0	0	
18620000000	0	0	-12.1859968201629	-121.851030249789	0	0	0	0	
18630000000	0	0	-15.4874146515528	130.836964402179	0	0	0	0	
18640000000	0	0	-19.4276460671616	40.8559785945016	0	0	0	0	
18650000000	0	0	-24.6495686289484	-88.3870128756356	0	0	0	0	
18660000000	0	0	-23.7759237437971	-71.1658405118379	0	0	0	0	
18670000000	0	0	-26.0338989441933	-130.695990408466	0	0	0	0	
18680000000	0	0	-16.2003321523	178.289817149018	0	0	0	0	
18690000000	0	0	-12.9357964764317	61.8221107653749	0	0	0	0	
18700000000	0	0	-13.7338546846827	-40.7973240637118	0	0	0	0	
18710000000	0	0	-11.4126674816642	-142.868101518581	0	0	0	0	
18720000000	0	0	-8.54242996879628	108.869098245501	0	0	0	0	
18730000000	0	0	-9.05703170422173	10.9551665599331	0	0	0	0	
18740000000	0	0	-7.57139103414915	-87.9025047304376	0	0	0	0	
18750000000	0	0	-6.74901329747546	167.50767402523	0	0	0	0	
18760000000	0	0	-5.82094657208451	71.264420483224	0	0	0	0	
18770000000	0	0	-6.13254414663966	-27.9877182315068	0	0	0	0	
18780000000	0	0	-5.50810499518309	-121.894821110326	0	0	0	0	
18790000000	0	0	-4.60922642650582	128.66544057774	0	0	0	0	
18800000000	0	0	-3.40616195541818	28.052475777115	0	0	0	0	
18810000000	0	0	-2.6829034349725	-78.4470892888694	0	0	0	0	
18820000000	0	0	-2.82634885483344	175.99062304732	0	0	0	0	
18830000000	0	0	-3.2189641675109	74.1781849335607	0	0	0	0	
18840000000	0	0	-3.35131264114688	-29.0372259201434	0	0	0	0	
18850000000	0	0	-4.19850625105442	-114.179003080308	0	0	0	0	
18860000000	0	0	-3.7071237471331	145.871230676124	0	0	0	0	
18870000000	0	0	-0.724586169576484	26.9014564840258	0	0	0	0	
18880000000	0	0	-5.96838802137742	-55.6135098095742	0	0	0	0	
18890000000	0	0	-3.88305868641909	-159.543411265568	0	0	0	0	
18900000000	0	0	-3.42858640084401	100.064643074629	0	0	0	0	
18910000000	0	0	-3.31476802552735	-5.76787957051298	0	0	0	0	
18920000000	0	0	-3.95504061908769	-103.10166475397	0	0	0	0	
18930000000	0	0	-3.74712784725885	156.822562170171	0	0	0	0	
18940000000	0	0	-3.77554771308811	61.8248604721016	0	0	0	0	
18950000000	0	0	-4.01872033465127	-39.9213819646401	0	0	0	0	
18960000000	0	0	-3.05966143238027	-143.304419078892	0	0	0	0	
18970000000	0	0	-4.5946295037239	115.674542036998	0	0	0	0	
18980000000	0	0	-4.16065042069986	10.0257495668682	0	0	0	0	
18990000000	0	0	-5.26209623316332	-88.756042265955	0	0	0	0	
19000000000	0	0	-5.66559040638198	167.802255906506	0	0	0	0	
19010000000	0	0	-6.19932763357722	68.8001319077207	0	0	0	0	
19020000000	0	0	-7.5575137758555	-27.4893891235622	0	0	0	0	
19030000000	0	0	-7.98809299200494	-134.093133276637	0	0	0	0	
19040000000	0	0	-8.10698472901272	128.69201957661	0	0	0	0	
19050000000	0	0	-8.18766383756383	32.9780392079069	0	0	0	0	
19060000000	0	0	-7.99935899573556	-73.5417965597492	0	0	0	0	
19070000000	0	0	-8.5347709167259	-177.963680775192	0	0	0	0	
19080000000	0	0	-10.413394793468	83.0092020247181	0	0	0	0	
19090000000	0	0	-11.8818360161415	-17.071128649986	0	0	0	0	
19100000000	0	0	-11.8862175512335	-104.15604688964	0	0	0	0	
19110000000	0	0	-13.3987759051582	141.854500549882	0	0	0	0	
19120000000	0	0	-15.0524897571045	51.0771151857424	0	0	0	0	
19130000000	0	0	-15.3927609588145	-44.4597979768162	0	0	0	0	
19140000000	0	0	-13.9582569899543	-140.898807071418	0	0	0	0	
19150000000	0	0	-19.2522018345478	82.1657816121387	0	0	0	0	
19160000000	0	0	-18.5657355397961	16.6393034077927	0	0	0	0	
19170000000	0	0	-20.0902802734843	-87.7861118922579	0	0	0	0	
19180000000	0	0	-25.4473205910599	-156.530554188477	0	0	0	0	
19190000000	0	0	-22.1111937902135	75.921796590194	0	0	0	0	
19200000000	0	0	-27.3614475011923	-58.1167724743834	0	0	0	0	
19210000000	0	0	-30.2726239926455	34.5215228016325	0	0	0	0	
19220000000	0	0	-34.9394004413288	-116.396321690488	0	0	0	0	
19230000000	0	0	-23.3563009661708	-131.790486653599	0	0	0	0	
19240000000	0	0	-22.3439618674412	113.633253309384	0	0	0	0	
19250000000	0	0	-22.1514663311089	9.74316579367141	0	0	0	0	
19260000000	0	0	-20.595473682192	-66.7989772692985	0	0	0	0	
19270000000	0	0	-24.1961288249644	-178.016383288045	0	0	0	0	
19280000000	0	0	-18.2732461415012	59.5224755475117	0	0	0	0	
19290000000	0	0	-18.8810681974331	-12.7746305928124	0	0	0	0	
19300000000	0	0	-19.2562283950689	-116.215330492948	0	0	0	0	
19310000000	0	0	-15.2455479612268	139.688553237724	0	0	0	0	
19320000000	0	0	-16.7739499355658	33.6681290252679	0	0	0	0	
19330000000	0	0	-13.9460061131762	-75.2224298751541	0	0	0	0	
19340000000	0	0	-13.2331650226124	-178.299982229212	0	0	0	0	
19350000000	0	0	-12.9262398073365	72.2426588369287	0	0	0	0	
19360000000	0	0	-15.9470174993065	-17.1429641656688	0	0	0	0	
19370000000	0	0	-12.695655792639	-112.77054601667	0	0	0	0	
19380000000	0	0	-12.7611425398405	147.616294419203	0	0	0	0	
19390000000	0	0	-12.0092351869253	44.436486070815	0	0	0	0	
19400000000	0	0	-11.9078557574271	-39.5625644107548	0	0	0	0	
19410000000	0	0	-11.1542778552654	-154.041327773958	0	0	0	0	
19420000000	0	0	-10.0341576229229	123.786930921337	0	0	0	0	
19430000000	0	0	-10.0654019984639	17.8771002536866	0	0	0	0	
19440000000	0	0	-8.51188384161753	-83.108895700472	0	0	0	0	
19450000000	0	0	-8.51153452907993	-168.336651109741	0	0	0	0	
19460000000	0	0	-7.1169710319653	86.8607836245607	0	0	0	0	
19470000000	0	0	-6.5312058881368	-18.838993603002	0	0	0	0	
19480000000	0	0	-6.60976159252402	-114.724371645038	0	0	0	0	
19490000000	0	0	-6.49296301728936	145.750854885208	0	0	0	0	
19500000000	0	0	-6.47715761419912	45.5742972616565	0	0	0	0	
19510000000	0	0	-5.76070393401794	-54.1930516756145	0	0	0	0	
19520000000	0	0	-4.14259439536029	-152.548849413704	0	0	0	0	
19530000000	0	0	-4.23451569114106	108.580679451913	0	0	0	0	
19540000000	0	0	-4.30277663436916	4.26901513230726	0	0	0	0	
19550000000	0	0	-3.78332306067203	-102.366739308939	0	0	0	0	
19560000000	0	0	-4.44284733044426	162.249826643044	0	0	0	0	
19570000000	0	0	-3.98839615578622	62.5774729081702	0	0	0	0	
19580000000	0	0	-3.41981145442889	-29.9086289970449	0	0	0	0	
19590000000	0	0	-4.79872236456397	-130.228276659819	0	0	0	0	
19600000000	0	0	-4.78543741549808	130.011546678416	0	0	0	0	
19610000000	0	0	-4.95872361391427	25.2494726059082	0	0	0	0	
19620000000	0	0	-4.72087166502636	-61.8759182329022	0	0	0	0	
19630000000	0	0	-4.81395616904846	-165.194340769413	0	0	0	0	
19640000000	0	0	-4.51106060491996	96.4377093620873	0	0	0	0	
19650000000	0	0	-4.33915353532257	5.14240005780138	0	0	0	0	
19660000000	0	0	-3.65031832758563	-94.8037712106129	0	0	0	0	
19670000000	0	0	-3.8387442695915	168.379039168169	0	0	0	0	
19680000000	0	0	-4.64965216498187	64.3563826894459	0	0	0	0	
19690000000	0	0	-4.56260279610645	-28.0146694231076	0	0	0	0	
19700000000	0	0	-5.05556909263438	-128.158154212583	0	0	0	0	
19710000000	0	0	-6.3094317308008	140.908906624208	0	0	0	0	
19720000000	0	0	-5.89368989668841	42.9529770022078	0	0	0	0	
19730000000	0	0	-4.77727932174124	-56.6212827751255	0	0	0	0	
19740000000	0	0	-5.16589324560633	-157.322165416354	0	0	0	0	
19750000000	0	0	-6.09643378119814	100.481602569245	0	0	0	0	
19760000000	0	0	-6.70263339349773	3.53164247996482	0	0	0	0	
19770000000	0	0	-8.78592005067348	-97.354470158576	0	0	0	0	
19780000000	0	0	-7.51863323980635	176.325754034078	0	0	0	0	
19790000000	0	0	-9.509159792325	76.2372468186018	0	0	0	0	
19800000000	0	0	-13.5900194269229	-17.0710737653186	0	0	0	0	
19810000000	0	0	-14.0358270665003	-118.26618870426	0	0	0	0	
19820000000	0	0	-16.7510652489019	130.999342687795	0	0	0	0	
19830000000	0	0	-17.5269034546176	20.9345031325021	0	0	0	0	
19840000000	0	0	-27.0783354802121	-58.8839957439271	0	0	0	0	
19850000000	0	0	-28.9077274253839	-43.6844893856659	0	0	0	0	
19860000000	0	0	-17.0145846344352	-114.311102001886	0	0	0	0	
19870000000	0	0	-16.1777728459665	164.675752857176	0	0	0	0	
19880000000	0	0	-13.3095232037652	64.9910523722554	0	0	0	0	
19890000000	0	0	-8.13540170106661	-45.1659016157401	0	0	0	0	
19900000000	0	0	0.388025772141653	173.490234444998	0	0	0	0	
19910000000	0	0	-23.4508210667508	22.7792096601968	0	0	0	0	
19920000000	0	0	-16.2252800557681	35.9637431776416	0	0	0	0	
19930000000	0	0	-11.8789571936859	-55.2576362372041	0	0	0	0	
19940000000	0	0	-12.108415552966	-149.641375023306	0	0	0	0	
19950000000	0	0	-9.63557011914899	112.778564274297	0	0	0	0	
19960000000	0	0	-8.83400595609418	2.61767458856093	0	0	0	0	
19970000000	0	0	-8.69781691844642	-90.3401168378391	0	0	0	0	
19980000000	0	0	-7.5787220419703	170.213184904602	0	0	0	0	
19990000000	0	0	-7.2588231698063	74.9264632034313	0	0	0	0	
20000000000	0	0	-5.99865343788214	-15.7301237897692	0	0	0	0	
