!Agilent N9918A: A.07.57
!Date: Saturday, 12 September 2020 10:21:07
!Timezone: (GMT-08:00) Pacific Time (US & Canada)
!Model: N9918A
!Serial: MY53103598
!GPS Latitude: 
!GPS Longitude: 
!GPS TimeStamp: 0001-01-01 00:00:00Z
!GPS Seconds Since Last Read: 0
!CHECKSUM:0417235042
!Correction: S11()S21(Rdy)S12()S22()
!S2P File: Measurements:S11,S21,S12,S22:
# Hz S DB R 50
18000000000	0	0	12.3977981039705	-149.053502455913	0	0	0	0	
18010000000	0	0	13.371717258841	104.613242727044	0	0	0	0	
18020000000	0	0	13.6256711474307	6.86767550636757	0	0	0	0	
18030000000	0	0	13.3184654020163	-93.763396120598	0	0	0	0	
18040000000	0	0	12.2910702390727	153.229203572888	0	0	0	0	
18050000000	0	0	12.0191201659212	28.6417902387538	0	0	0	0	
18060000000	0	0	12.6108084651221	-94.5159347714136	0	0	0	0	
18070000000	0	0	13.4334756475264	157.243322815297	0	0	0	0	
18080000000	0	0	13.8567242517298	57.1496708370527	0	0	0	0	
18090000000	0	0	13.7988279729161	-44.2302385947303	0	0	0	0	
18100000000	0	0	13.572629041061	-154.484261186976	0	0	0	0	
18110000000	0	0	13.2828085968412	81.5463871039504	0	0	0	0	
18120000000	0	0	13.4437154722152	-41.6534884521259	0	0	0	0	
18130000000	0	0	13.8625071379096	-151.381229436082	0	0	0	0	
18140000000	0	0	13.9813490127546	107.224445070406	0	0	0	0	
18150000000	0	0	14.0810085955311	4.61002810600318	0	0	0	0	
18160000000	0	0	13.8283559978702	-106.011617992238	0	0	0	0	
18170000000	0	0	13.8583990452469	127.068801657907	0	0	0	0	
18180000000	0	0	13.6925177150928	0.657524349911185	0	0	0	0	
18190000000	0	0	13.8969508196358	-111.412297110211	0	0	0	0	
18200000000	0	0	13.9249042827615	149.104984317018	0	0	0	0	
18210000000	0	0	13.4881001398204	50.406076473178	0	0	0	0	
18220000000	0	0	13.3863392890212	-56.4763216872529	0	0	0	0	
18230000000	0	0	13.1251473079867	-179.82447454492	0	0	0	0	
18240000000	0	0	13.2637038818139	53.8131451677059	0	0	0	0	
18250000000	0	0	13.7439970535904	-59.5043452255723	0	0	0	0	
18260000000	0	0	14.0393057758201	-157.1192879943	0	0	0	0	
18270000000	0	0	14.0117574691247	106.1605427782	0	0	0	0	
18280000000	0	0	13.6307441423115	9.90224189708418	0	0	0	0	
18290000000	0	0	13.2985496022186	-100.650528725577	0	0	0	0	
18300000000	0	0	13.5617724780573	132.024225231093	0	0	0	0	
18310000000	0	0	13.9807592126049	7.30041805189973	0	0	0	0	
18320000000	0	0	14.3329683521358	-100.034606943217	0	0	0	0	
18330000000	0	0	14.4834377308165	164.912997767558	0	0	0	0	
18340000000	0	0	14.2204323405302	72.0757475932049	0	0	0	0	
18350000000	0	0	13.6988814783152	-25.4845991366808	0	0	0	0	
18360000000	0	0	13.202696316203	-140.860354127322	0	0	0	0	
18370000000	0	0	13.4323043720888	85.4036985386431	0	0	0	0	
18380000000	0	0	14.2965107076431	-40.0300474081086	0	0	0	0	
18390000000	0	0	14.4062330082223	-145.688156876263	0	0	0	0	
18400000000	0	0	13.9506429358982	119.621877302392	0	0	0	0	
18410000000	0	0	13.3089619845553	26.3310908512826	0	0	0	0	
18420000000	0	0	12.280923452554	-78.4736394115783	0	0	0	0	
18430000000	0	0	11.9383063815073	154.127770562412	0	0	0	0	
18440000000	0	0	13.0204561899105	17.8947013680928	0	0	0	0	
18450000000	0	0	14.2219667667604	-95.0729098562588	0	0	0	0	
18460000000	0	0	14.4835228095392	165.981722132442	0	0	0	0	
18470000000	0	0	14.3178637601914	71.1184750528491	0	0	0	0	
18480000000	0	0	13.5850453172395	-28.0223405678421	0	0	0	0	
18490000000	0	0	13.0134297727538	-143.76062730365	0	0	0	0	
18500000000	0	0	12.9688169642543	81.364358372168	0	0	0	0	
18510000000	0	0	14.1214315291903	-43.1719848633856	0	0	0	0	
18520000000	0	0	14.5791811392147	-145.242701933149	0	0	0	0	
18530000000	0	0	14.5432958550321	119.541269075918	0	0	0	0	
18540000000	0	0	13.9236391129133	29.2867350772116	0	0	0	0	
18550000000	0	0	13.2175120200038	-68.319440518376	0	0	0	0	
18560000000	0	0	12.611298427534	175.334410939296	0	0	0	0	
18570000000	0	0	13.0850510284075	44.3895145058778	0	0	0	0	
18580000000	0	0	14.0141316110018	-76.8323348098834	0	0	0	0	
18590000000	0	0	14.4857428951906	-179.286562798441	0	0	0	0	
18600000000	0	0	14.0564268342866	88.2745930329508	0	0	0	0	
18610000000	0	0	13.3450825195984	-1.6167873871823	0	0	0	0	
18620000000	0	0	12.6636479395891	-99.3879789360139	0	0	0	0	
18630000000	0	0	12.2075886028587	146.226804672171	0	0	0	0	
18640000000	0	0	12.7442454745061	13.4172466216146	0	0	0	0	
18650000000	0	0	14.0095681085064	-105.586492271754	0	0	0	0	
18660000000	0	0	14.4828942137844	153.063147525441	0	0	0	0	
18670000000	0	0	14.3929633331778	58.5537305766973	0	0	0	0	
18680000000	0	0	14.1118670895718	-36.4266929410579	0	0	0	0	
18690000000	0	0	13.5171342100042	-139.829334686567	0	0	0	0	
18700000000	0	0	13.2199675605145	96.1226840211129	0	0	0	0	
18710000000	0	0	13.7856943052251	-34.6537162998504	0	0	0	0	
18720000000	0	0	14.4955339379376	-149.894908550939	0	0	0	0	
18730000000	0	0	14.4356712178496	110.241177973866	0	0	0	0	
18740000000	0	0	14.2575427995417	16.3740546940571	0	0	0	0	
18750000000	0	0	13.534114791933	-78.6563415302095	0	0	0	0	
18760000000	0	0	12.7966470912715	173.928508305519	0	0	0	0	
18770000000	0	0	12.736098761087	49.5334699662764	0	0	0	0	
18780000000	0	0	13.4726097734332	-76.0591947143607	0	0	0	0	
18790000000	0	0	14.2410628056248	173.464295246984	0	0	0	0	
18800000000	0	0	14.2302771136494	76.0219157332511	0	0	0	0	
18810000000	0	0	13.8487527013414	-18.001028728427	0	0	0	0	
18820000000	0	0	13.1091407055407	-115.349074497355	0	0	0	0	
18830000000	0	0	12.4901382412875	134.868737516313	0	0	0	0	
18840000000	0	0	12.6543912387357	10.8328527665655	0	0	0	0	
18850000000	0	0	13.4541120095445	-110.795680561858	0	0	0	0	
18860000000	0	0	14.2774909143758	141.22092085323	0	0	0	0	
18870000000	0	0	14.4867331458451	43.0616338233461	0	0	0	0	
18880000000	0	0	14.0686726738342	-52.2720013048013	0	0	0	0	
18890000000	0	0	13.4640077793265	-152.618124917624	0	0	0	0	
18900000000	0	0	12.8116639186013	93.6158417029801	0	0	0	0	
18910000000	0	0	12.4200494801815	-28.7144700485393	0	0	0	0	
18920000000	0	0	13.7208760382087	-149.146573499316	0	0	0	0	
18930000000	0	0	14.1278967811633	108.901385459866	0	0	0	0	
18940000000	0	0	14.0724490239391	9.51093059720771	0	0	0	0	
18950000000	0	0	13.779460181723	-85.2609452350454	0	0	0	0	
18960000000	0	0	13.3214086802501	174.039625415391	0	0	0	0	
18970000000	0	0	13.0360347909335	59.5468310100344	0	0	0	0	
18980000000	0	0	12.9504828610938	-59.9989101010551	0	0	0	0	
18990000000	0	0	13.5156568452235	-176.177350780017	0	0	0	0	
19000000000	0	0	13.9292092003764	79.3270591395503	0	0	0	0	
19010000000	0	0	13.8323464328437	-17.6020843625644	0	0	0	0	
19020000000	0	0	13.7077863624062	-113.501328751405	0	0	0	0	
19030000000	0	0	13.4619777264375	143.730356781444	0	0	0	0	
19040000000	0	0	13.5244103327662	28.3553045789116	0	0	0	0	
19050000000	0	0	13.7717591260811	-91.7614067723759	0	0	0	0	
19060000000	0	0	14.0701187650065	153.173701582086	0	0	0	0	
19070000000	0	0	14.0003007336478	49.8053406490609	0	0	0	0	
19080000000	0	0	13.8393176637465	-48.0048803011187	0	0	0	0	
19090000000	0	0	14.0586027570289	-147.960671436191	0	0	0	0	
19100000000	0	0	13.940910415654	105.725105422706	0	0	0	0	
19110000000	0	0	13.7551305695336	-12.5844991345807	0	0	0	0	
19120000000	0	0	13.7076238555009	-130.533712025987	0	0	0	0	
19130000000	0	0	13.6953222261481	119.047642337301	0	0	0	0	
19140000000	0	0	13.6509846700723	17.9893212448016	0	0	0	0	
19150000000	0	0	13.744576778207	-79.3878007690182	0	0	0	0	
19160000000	0	0	13.8590161080747	-179.222731964297	0	0	0	0	
19170000000	0	0	13.9247241910621	70.7941626708988	0	0	0	0	
19180000000	0	0	13.7675415909991	-45.2020819948584	0	0	0	0	
19190000000	0	0	13.7770046803174	-161.620222998074	0	0	0	0	
19200000000	0	0	13.5098207452828	92.1089859225672	0	0	0	0	
19210000000	0	0	13.7469112474444	-7.30279132411659	0	0	0	0	
19220000000	0	0	13.8775978017599	-104.031408862758	0	0	0	0	
19230000000	0	0	14.2693491210372	156.315856773651	0	0	0	0	
19240000000	0	0	14.4012796007095	45.09804836832	0	0	0	0	
19250000000	0	0	14.3885164122131	-72.1212661685848	0	0	0	0	
19260000000	0	0	14.0636160640674	173.531494320424	0	0	0	0	
19270000000	0	0	14.1064674620639	68.2795935979473	0	0	0	0	
19280000000	0	0	14.1956691018943	-28.6360480606306	0	0	0	0	
19290000000	0	0	14.2206787132573	-128.193367245473	0	0	0	0	
19300000000	0	0	14.5263569414685	128.243478684186	0	0	0	0	
19310000000	0	0	14.4390348241272	13.4372991807744	0	0	0	0	
19320000000	0	0	14.0442337434124	-104.550753552741	0	0	0	0	
19330000000	0	0	13.535942877002	142.781373907288	0	0	0	0	
19340000000	0	0	13.4738220437794	40.0272001692622	0	0	0	0	
19350000000	0	0	13.3947144565043	-55.8689917929252	0	0	0	0	
19360000000	0	0	13.8585744417555	-153.164110833372	0	0	0	0	
19370000000	0	0	13.739732015565	102.161613447531	0	0	0	0	
19380000000	0	0	13.6980906819237	-11.9520850984765	0	0	0	0	
19390000000	0	0	13.552195924502	-128.436364445759	0	0	0	0	
19400000000	0	0	13.3101970721938	122.180264563742	0	0	0	0	
19410000000	0	0	13.4405784919297	23.8238735643371	0	0	0	0	
19420000000	0	0	13.3512270946778	-72.1345614757222	0	0	0	0	
19430000000	0	0	13.6730963350796	-168.762562433411	0	0	0	0	
19440000000	0	0	14.0129543531869	89.1107546632278	0	0	0	0	
19450000000	0	0	13.4723951525811	-23.8385546454182	0	0	0	0	
19460000000	0	0	13.1837098648402	-139.080727490222	0	0	0	0	
19470000000	0	0	13.3254062969705	110.77330596386	0	0	0	0	
19480000000	0	0	13.6659694886094	9.18096416199144	0	0	0	0	
19490000000	0	0	13.7439369559205	-86.913490312425	0	0	0	0	
19500000000	0	0	13.6439668969823	176.247173669694	0	0	0	0	
19510000000	0	0	13.7095249508874	73.3496260877166	0	0	0	0	
19520000000	0	0	13.083631992359	-38.0890936360529	0	0	0	0	
19530000000	0	0	12.8928688005914	-156.317261230742	0	0	0	0	
19540000000	0	0	12.7477841491866	92.442644169886	0	0	0	0	
19550000000	0	0	13.2143353209957	-11.7343882048915	0	0	0	0	
19560000000	0	0	13.340729132253	-108.721712214867	0	0	0	0	
19570000000	0	0	13.2869073264071	155.22501050667	0	0	0	0	
19580000000	0	0	13.1082178631013	51.5219146700562	0	0	0	0	
19590000000	0	0	12.8016037004651	-61.2407449953678	0	0	0	0	
19600000000	0	0	12.9239277151216	-179.282954618367	0	0	0	0	
19610000000	0	0	13.4828807775194	67.3703036672002	0	0	0	0	
19620000000	0	0	13.9050538106069	-35.8677746187955	0	0	0	0	
19630000000	0	0	13.8359895962326	-131.164566171777	0	0	0	0	
19640000000	0	0	13.9416680282	131.017583485703	0	0	0	0	
19650000000	0	0	13.5347210879351	30.3874573267296	0	0	0	0	
19660000000	0	0	13.215038173299	-78.1074290043746	0	0	0	0	
19670000000	0	0	13.2049707750864	167.603833612755	0	0	0	0	
19680000000	0	0	13.7000240648109	54.6245630872479	0	0	0	0	
19690000000	0	0	14.0862455760449	-48.7789707032388	0	0	0	0	
19700000000	0	0	14.2821482854941	-145.502435154588	0	0	0	0	
19710000000	0	0	13.945204253061	119.805330799858	0	0	0	0	
19720000000	0	0	13.3456176688036	23.2866469322132	0	0	0	0	
19730000000	0	0	12.721347952365	-79.131522331142	0	0	0	0	
19740000000	0	0	12.5351612703882	171.297388021052	0	0	0	0	
19750000000	0	0	12.9127178833807	55.7956011344508	0	0	0	0	
19760000000	0	0	13.4797902116269	-52.6572300980847	0	0	0	0	
19770000000	0	0	13.6031631203873	-153.629796832531	0	0	0	0	
19780000000	0	0	13.6694609036864	110.857039029005	0	0	0	0	
19790000000	0	0	13.1321903008715	14.8937156144934	0	0	0	0	
19800000000	0	0	12.2698133201113	-86.5119812170383	0	0	0	0	
19810000000	0	0	12.2803308685516	160.753290316123	0	0	0	0	
19820000000	0	0	12.769428511005	41.1574694433883	0	0	0	0	
19830000000	0	0	13.4793595228466	-72.3305977325237	0	0	0	0	
19840000000	0	0	13.8304058403408	-175.59538858117	0	0	0	0	
19850000000	0	0	13.4933810287384	86.2671490894949	0	0	0	0	
19860000000	0	0	13.0239177415137	-10.2113435710716	0	0	0	0	
19870000000	0	0	12.5403267448189	-112.169661573029	0	0	0	0	
19880000000	0	0	12.4422583444504	134.550020879457	0	0	0	0	
19890000000	0	0	13.0383228956648	16.1291199608775	0	0	0	0	
19900000000	0	0	13.3320135854105	-97.5532573467118	0	0	0	0	
19910000000	0	0	13.3504962651012	160.486802117422	0	0	0	0	
19920000000	0	0	13.0196034605562	66.394918202581	0	0	0	0	
19930000000	0	0	12.5654646513975	-27.1048099208477	0	0	0	0	
19940000000	0	0	12.126806726558	-121.651582846889	0	0	0	0	
19950000000	0	0	11.6885016642603	131.775321842168	0	0	0	0	
19960000000	0	0	12.2918682497359	16.1282246500103	0	0	0	0	
19970000000	0	0	12.7908428735675	-98.9641107765189	0	0	0	0	
19980000000	0	0	13.0112754075383	156.410544509887	0	0	0	0	
19990000000	0	0	12.9310059007648	60.7941953620425	0	0	0	0	
20000000000	0	0	12.6439500957583	-31.2506958613153	0	0	0	0	
