!Agilent N9918A: A.07.57
!Date: Thursday, 22 August 2019 15:16:35
!Timezone: (GMT-08:00) Pacific Time (US & Canada)
!Model: N9918A
!Serial: MY53103598
!GPS Latitude: 
!GPS Longitude: 
!GPS TimeStamp: 0001-01-01 00:00:00Z
!GPS Seconds Since Last Read: 0
!CHECKSUM:1139701310
!Correction: S11()S21(Rdy)S12()S22()
!S2P File: Measurements:S11,S21,S12,S22:
# Hz S DB R 50
16372145681.5601	0	0	-3.12405522233468	143.308777202233	0	0	0	0	
16409931185.972	0	0	-2.9701755472231	95.1716464802353	0	0	0	0	
16447716690.384	0	0	-3.24443607587678	48.8882454260086	0	0	0	0	
16485502194.796	0	0	-3.25539105603676	5.04960152975164	0	0	0	0	
16523287699.2079	0	0	-2.73737849916173	-40.3415414460156	0	0	0	0	
16561073203.6199	0	0	-2.378063799921	-90.0627172296146	0	0	0	0	
16598858708.0319	0	0	-2.68830674433987	-139.343797176897	0	0	0	0	
16636644212.4439	0	0	-2.97034832911099	175.752175149712	0	0	0	0	
16674429716.8558	0	0	-2.79185475950365	130.078542551987	0	0	0	0	
16712215221.2678	0	0	-2.87430598702569	82.8989595658685	0	0	0	0	
16750000725.6798	0	0	-2.96979716801704	37.9231950183508	0	0	0	0	
16787786230.0918	0	0	-2.74907216216661	-7.71335584919115	0	0	0	0	
16825571734.5037	0	0	-2.75855933743716	-55.359819966489	0	0	0	0	
16863357238.9157	0	0	-2.95373671024803	-100.723458425532	0	0	0	0	
16901142743.3277	0	0	-3.06093498905864	-145.92653403686	0	0	0	0	
16938928247.7397	0	0	-3.24872553739834	169.274794212643	0	0	0	0	
16976713752.1516	0	0	-3.21870467416374	126.383828978954	0	0	0	0	
17014499256.5636	0	0	-2.79297094625363	80.9451079042989	0	0	0	0	
17052284760.9756	0	0	-3.06023271611956	32.8282895928268	0	0	0	0	
17090070265.3876	0	0	-3.65430333125045	-10.6627383777088	0	0	0	0	
17127855769.7995	0	0	-3.66992337999948	-51.0711291515674	0	0	0	0	
17165641274.2115	0	0	-3.26822479334498	-94.0936111795142	0	0	0	0	
17203426778.6235	0	0	-3.04652463017274	-139.365985449697	0	0	0	0	
17241212283.0355	0	0	-2.9589447677504	175.333372368347	0	0	0	0	
17278997787.4474	0	0	-3.12746011611078	129.945321977015	0	0	0	0	
17316783291.8594	0	0	-3.43966735052998	85.5575955786682	0	0	0	0	
17354568796.2714	0	0	-3.70847733369744	43.7140955569236	0	0	0	0	
17392354300.6834	0	0	-3.53314707328224	2.43226601461937	0	0	0	0	
17430139805.0953	0	0	-3.23327476011555	-41.8043126214011	0	0	0	0	
17467925309.5073	0	0	-3.24237840274665	-86.7708599717738	0	0	0	0	
17505710813.9193	0	0	-3.24115137336492	-130.243407952994	0	0	0	0	
17543496318.3313	0	0	-3.01451986001391	-174.011505159958	0	0	0	0	
17581281822.7432	0	0	-2.95652228567653	141.569875827217	0	0	0	0	
17619067327.1552	0	0	-2.81492508386594	98.7226391802444	0	0	0	0	
17656852831.5672	0	0	-2.41338600396376	53.683745785689	0	0	0	0	
17694638335.9792	0	0	-2.59186506784445	6.38904763389081	0	0	0	0	
17732423840.3911	0	0	-3.17915271548831	-36.253173953126	0	0	0	0	
17770209344.8031	0	0	-3.22709347289903	-75.8343501235076	0	0	0	0	
17807994849.2151	0	0	-2.81133378981747	-117.589456241298	0	0	0	0	
17845780353.6271	0	0	-2.60270911894598	-161.702525474335	0	0	0	0	
17883565858.039	0	0	-2.54802664193075	155.14095059273	0	0	0	0	
17921351362.451	0	0	-2.39813501381131	111.196417725329	0	0	0	0	
17959136866.863	0	0	-2.5283786996279	67.3394123793096	0	0	0	0	
17996922371.275	0	0	-2.67553426122572	25.0078821421854	0	0	0	0	
18034707875.6869	0	0	-2.58812930810296	-17.1895948858993	0	0	0	0	
18072493380.0989	0	0	-2.60485296289731	-61.4018514536728	0	0	0	0	
18110278884.5109	0	0	-2.88504353127019	-103.359211000968	0	0	0	0	
18148064388.9229	0	0	-2.79124681071776	-144.115163293421	0	0	0	0	
18185849893.3349	0	0	-2.57297285321997	172.242219091405	0	0	0	0	
18223635397.7468	0	0	-2.8905721181764	128.088864175813	0	0	0	0	
18261420902.1588	0	0	-3.27179082284141	88.6294544107022	0	0	0	0	
18299206406.5708	0	0	-2.82959816329663	49.5194032589991	0	0	0	0	
18336991910.9828	0	0	-2.29276307157256	5.61328372282475	0	0	0	0	
18374777415.3947	0	0	-2.3495473328346	-38.7409047197138	0	0	0	0	
18412562919.8067	0	0	-2.33478117082858	-79.7249888839544	0	0	0	0	
18450348424.2187	0	0	-1.89094249172571	-122.923553047481	0	0	0	0	
18488133928.6307	0	0	-1.89499329851236	-167.934284867464	0	0	0	0	
18525919433.0426	0	0	-2.14026816827619	149.717831690918	0	0	0	0	
18563704937.4546	0	0	-2.09341519127712	107.982719789535	0	0	0	0	
18601490441.8666	0	0	-2.10954233749971	65.0574070347722	0	0	0	0	
18639275946.2786	0	0	-2.30006801551947	23.4747127593658	0	0	0	0	
18677061450.6905	0	0	-2.17445628623791	-17.7188589578913	0	0	0	0	
18714846955.1025	0	0	-2.00164812196623	-60.775297520109	0	0	0	0	
18752632459.5145	0	0	-2.25448513485283	-104.175635754904	0	0	0	0	
18790417963.9265	0	0	-2.63456895794868	-144.889315727794	0	0	0	0	
18828203468.3384	0	0	-2.5861967669898	176.140521977006	0	0	0	0	
18865988972.7504	0	0	-2.19684592792108	135.048318502814	0	0	0	0	
18903774477.1624	0	0	-2.02453059510112	91.9282973358796	0	0	0	0	
18941559981.5744	0	0	-2.0946589221051	49.8980752591451	0	0	0	0	
18979345485.9863	0	0	-1.99120735289688	7.78402528051603	0	0	0	0	
19017130990.3983	0	0	-2.05313944458835	-35.4047293192135	0	0	0	0	
19054916494.8103	0	0	-2.41192168221929	-77.0630575352829	0	0	0	0	
19092701999.2223	0	0	-2.56210911589197	-116.06724596369	0	0	0	0	
19130487503.6342	0	0	-2.36875814913823	-155.569964149959	0	0	0	0	
19168273008.0462	0	0	-2.17414591176406	162.91152264124	0	0	0	0	
19206058512.4582	0	0	-2.0685132035252	120.781772594503	0	0	0	0	
19243844016.8702	0	0	-2.07342531320752	78.3840359281172	0	0	0	0	
19281629521.2822	0	0	-2.37515011466768	36.6687472126177	0	0	0	0	
19319415025.6941	0	0	-2.62861260010538	-2.8234582058749	0	0	0	0	
19357200530.1061	0	0	-2.43972765399631	-42.0714274108008	0	0	0	0	
19394986034.5181	0	0	-2.24271075646665	-83.9535132973235	0	0	0	0	
19432771538.9301	0	0	-2.36554438136053	-126.651570214358	0	0	0	0	
19470557043.342	0	0	-2.7660962825889	-167.138622555757	0	0	0	0	
19508342547.754	0	0	-2.88287762824591	154.472747128721	0	0	0	0	
19546128052.166	0	0	-2.59150647544142	115.296692871828	0	0	0	0	
19583913556.578	0	0	-2.27313883750062	73.5561519855086	0	0	0	0	
19621699060.9899	0	0	-2.30770108465238	31.0547108549174	0	0	0	0	
19659484565.4019	0	0	-2.40911704699208	-9.79295258125761	0	0	0	0	
19697270069.8139	0	0	-2.2927208815841	-50.9247194039432	0	0	0	0	
19735055574.2259	0	0	-2.33190237058972	-92.6695230363116	0	0	0	0	
19772841078.6378	0	0	-2.45062857853319	-133.655428782696	0	0	0	0	
19810626583.0498	0	0	-2.46481018107681	-174.044820701195	0	0	0	0	
19848412087.4618	0	0	-2.4074295437497	145.166130543482	0	0	0	0	
19886197591.8738	0	0	-2.42387042753832	104.362189783731	0	0	0	0	
19923983096.2857	0	0	-2.37729559956014	63.3980516838169	0	0	0	0	
19961768600.6977	0	0	-2.43643918674585	22.1012751746723	0	0	0	0	
19999554105.1097	0	0	-2.58006112010091	-18.3242563275485	0	0	0	0	
20037339609.5217	0	0	-2.62157276600962	-54.9818527443529	0	0	0	0	
20075125113.9336	0	0	-2.52337692647862	-95.5576973436595	0	0	0	0	
20112910618.3456	0	0	-2.67429392419454	-137.825578074951	0	0	0	0	
20150696122.7576	0	0	-2.94140959958955	-177.485393122475	0	0	0	0	
20188481627.1696	0	0	-3.20440157595293	144.581038541544	0	0	0	0	
20226267131.5815	0	0	-2.92045374854305	106.482764802703	0	0	0	0	
20264052635.9935	0	0	-2.52139898039954	65.1953806518268	0	0	0	0	
20301838140.4055	0	0	-2.43398983351368	22.5812648933354	0	0	0	0	
20339623644.8175	0	0	-2.81932126858864	-17.8532593128026	0	0	0	0	
20377409149.2295	0	0	-2.91327259702345	-55.7513484536145	0	0	0	0	
20415194653.6414	0	0	-2.66901894864761	-94.888483430498	0	0	0	0	
20452980158.0534	0	0	-2.59451133110486	-135.841756984933	0	0	0	0	
20490765662.4654	0	0	-2.58437176769351	-175.960680197269	0	0	0	0	
20528551166.8774	0	0	-2.54638757342127	143.787416115843	0	0	0	0	
20566336671.2893	0	0	-2.59837571445469	103.413055503847	0	0	0	0	
20604122175.7013	0	0	-2.8248039325963	62.9870255430848	0	0	0	0	
20641907680.1133	0	0	-2.77256710116188	24.0931022269067	0	0	0	0	
20679693184.5253	0	0	-2.79409378670415	-15.9708371704484	0	0	0	0	
20717478688.9372	0	0	-2.93287969575642	-56.7344259344668	0	0	0	0	
20755264193.3492	0	0	-2.93812372631426	-96.1798101951289	0	0	0	0	
20793049697.7612	0	0	-2.78406716666934	-135.991263824249	0	0	0	0	
20830835202.1732	0	0	-2.85521915625961	-176.643370290881	0	0	0	0	
20868620706.5851	0	0	-2.97626988450693	143.15598667291	0	0	0	0	
20906406210.9971	0	0	-3.08453890835826	104.128048490878	0	0	0	0	
20944191715.4091	0	0	-3.0620598134949	65.6058424819138	0	0	0	0	
20981977219.8211	0	0	-2.99508964344227	26.0094420730032	0	0	0	0	
21019762724.233	0	0	-2.97093014308004	-14.501543548904	0	0	0	0	
21057548228.645	0	0	-3.05810208512836	-53.5265497199321	0	0	0	0	
21095333733.057	0	0	-3.04499483828718	-92.6176779277263	0	0	0	0	
21133119237.469	0	0	-2.87640359669232	-131.670746566061	0	0	0	0	
21170904741.8809	0	0	-2.73661470572711	-171.681193304725	0	0	0	0	
21208690246.2929	0	0	-2.90843870284376	149.22737601219	0	0	0	0	
21246475750.7049	0	0	-2.82241803392169	110.073090225862	0	0	0	0	
21284261255.1169	0	0	-2.79940775041829	70.3956769487736	0	0	0	0	
21322046759.5288	0	0	-2.79883287769976	31.1713875413807	0	0	0	0	
21359832263.9408	0	0	-2.81572121611088	-7.62827950084634	0	0	0	0	
21397617768.3528	0	0	-2.75500913293222	-47.8752493659161	0	0	0	0	
21435403272.7648	0	0	-2.89419742617826	-87.5912032749213	0	0	0	0	
21473188777.1768	0	0	-2.87554709573245	-126.405249855037	0	0	0	0	
21510974281.5887	0	0	-2.91697926984106	-167.28112564605	0	0	0	0	
21548759786.0007	0	0	-2.94529053698076	152.425347736463	0	0	0	0	
21586545290.4127	0	0	-3.16932317540748	111.765569542606	0	0	0	0	
21624330794.8247	0	0	-3.37632508113666	71.4711756338281	0	0	0	0	
21662116299.2366	0	0	-3.42377893051723	33.406470277474	0	0	0	0	
21699901803.6486	0	0	-3.27540562757951	-6.0101864952234	0	0	0	0	
21737687308.0606	0	0	-3.19346941379069	-46.0942728089873	0	0	0	0	
21775472812.4726	0	0	-3.33030476626147	-86.1686464896578	0	0	0	0	
21813258316.8845	0	0	-3.42179380243831	-124.374962454094	0	0	0	0	
21851043821.2965	0	0	-3.38337630932226	-162.439763347253	0	0	0	0	
21888829325.7085	0	0	-2.98038146276768	157.337054693003	0	0	0	0	
21926614830.1205	0	0	-3.00584628381241	117.538322055137	0	0	0	0	
21964400334.5324	0	0	-3.02645998580216	78.8437992723594	0	0	0	0	
22002185838.9444	0	0	-3.10193696986803	39.0910587568394	0	0	0	0	
22039971343.3564	0	0	-3.29575266913266	1.25442888192974	0	0	0	0	
22077756847.7684	0	0	-3.31046800441257	-36.9094550401888	0	0	0	0	
22115542352.1803	0	0	-3.13238863280457	-75.4225799142427	0	0	0	0	
22153327856.5923	0	0	-2.95186971140275	-115.552219818256	0	0	0	0	
22191113361.0043	0	0	-2.99438225013186	-155.495686680734	0	0	0	0	
22228898865.4163	0	0	-3.12962119908452	164.981586972924	0	0	0	0	
22266684369.8282	0	0	-3.35068484109482	125.264066390019	0	0	0	0	
22304469874.2402	0	0	-3.64402273574139	87.4270589467721	0	0	0	0	
22342255378.6522	0	0	-3.79202817697397	51.635655010647	0	0	0	0	
22380040883.0642	0	0	-3.62789405807578	14.4907811226103	0	0	0	0	
22417826387.4761	0	0	-3.14117462194128	-25.6525193883757	0	0	0	0	
22455611891.8881	0	0	-3.22055024046439	-64.9509437065233	0	0	0	0	
22493397396.3001	0	0	-3.54230481811665	-105.033072840894	0	0	0	0	
22531182900.7121	0	0	-3.53024257491746	-141.658363851045	0	0	0	0	
22568968405.1241	0	0	-3.37506207543372	-178.360007671558	0	0	0	0	
22606753909.536	0	0	-3.14643147380371	141.165488511972	0	0	0	0	
22644539413.948	0	0	-3.43264687813458	102.148267721631	0	0	0	0	
22682324918.36	0	0	-3.39809886133387	63.0214658195383	0	0	0	0	
22720110422.772	0	0	-3.19722280645031	24.0055275231156	0	0	0	0	
22757895927.1839	0	0	-3.22217438226334	-15.9237527476858	0	0	0	0	
22795681431.5959	0	0	-3.38418682758606	-54.8227907763231	0	0	0	0	
22833466936.0079	0	0	-3.38535272868666	-93.2247225386947	0	0	0	0	
22871252440.4199	0	0	-3.49177360680812	-133.594635689845	0	0	0	0	
22909037944.8318	0	0	-3.55608612962908	-171.677676539241	0	0	0	0	
22946823449.2438	0	0	-3.57993453818446	149.783523263445	0	0	0	0	
22984608953.6558	0	0	-3.68591705961724	109.644323938046	0	0	0	0	
23022394458.0678	0	0	-3.99683426768347	69.8881002827068	0	0	0	0	
23060179962.4797	0	0	-4.57134302320593	33.4029706826734	0	0	0	0	
23097965466.8917	0	0	-4.48958932208631	-2.45012621801959	0	0	0	0	
23135750971.3037	0	0	-4.39546293984999	-38.6864345464093	0	0	0	0	
23173536475.7157	0	0	-4.45890355963608	-77.2744553248658	0	0	0	0	
23211321980.1276	0	0	-4.27878808838713	-114.287067767083	0	0	0	0	
23249107484.5396	0	0	-4.25303294968852	-151.125175207522	0	0	0	0	
23286892988.9516	0	0	-4.13240285484412	171.390605813241	0	0	0	0	
23324678493.3636	0	0	-3.72657203294535	132.438950966092	0	0	0	0	
23362463997.7755	0	0	-3.86476085456604	92.5478738427787	0	0	0	0	
23400249502.1875	0	0	-3.77270369556132	54.7939619802142	0	0	0	0	
23438035006.5995	0	0	-3.54482471857298	17.1664045019476	0	0	0	0	
23475820511.0115	0	0	-3.47791796553969	-22.3031396014528	0	0	0	0	
23513606015.4234	0	0	-3.51921734409746	-62.1725387850828	0	0	0	0	
23551391519.8354	0	0	-3.7257054700135	-100.449712302535	0	0	0	0	
23589177024.2474	0	0	-3.93269628109628	-138.039401332662	0	0	0	0	
23626962528.6594	0	0	-3.92295056866011	-174.768653809891	0	0	0	0	
23664748033.0714	0	0	-3.73395272944467	147.553197396497	0	0	0	0	
23702533537.4833	0	0	-3.46351128372665	109.084131040643	0	0	0	0	
23740319041.8953	0	0	-3.69524917578136	69.2678009808764	0	0	0	0	
23778104546.3073	0	0	-3.94755203038772	30.6149960949593	0	0	0	0	
23815890050.7193	0	0	-4.13679873886049	-4.9593480433754	0	0	0	0	
23853675555.1312	0	0	-3.99847639670771	-41.6519046351132	0	0	0	0	
23891461059.5432	0	0	-3.85704258698901	-80.2688352928373	0	0	0	0	
23929246563.9552	0	0	-3.9114730973363	-116.975675212835	0	0	0	0	
