!Agilent N9918A: A.07.57
!Date: Thursday, 22 August 2019 15:59:49
!Timezone: (GMT-08:00) Pacific Time (US & Canada)
!Model: N9918A
!Serial: MY53103598
!GPS Latitude: 
!GPS Longitude: 
!GPS TimeStamp: 0001-01-01 00:00:00Z
!GPS Seconds Since Last Read: 0
!CHECKSUM:0387507572
!Correction: S11()S21(Rdy)S12()S22()
!S2P File: Measurements:S11,S21,S12,S22:
# Hz S DB R 50
16372145681.5601	0	0	-4.18561131314987	28.3658426012378	0	0	0	0	
16409931185.972	0	0	-4.35203018387892	-162.930186317436	0	0	0	0	
16447716690.384	0	0	-4.18337559466815	13.175704992299	0	0	0	0	
16485502194.796	0	0	-4.18952476626764	-177.096441410432	0	0	0	0	
16523287699.2079	0	0	-3.66550657892889	-0.407126454138754	0	0	0	0	
16561073203.6199	0	0	-3.64193452977432	171.02373662878	0	0	0	0	
16598858708.0319	0	0	-3.01850956399882	-14.2793001379942	0	0	0	0	
16636644212.4439	0	0	-3.34961147574695	161.787355079733	0	0	0	0	
16674429716.8558	0	0	-3.08419883722755	-23.4806973236365	0	0	0	0	
16712215221.2678	0	0	-3.43684140301404	156.740604137569	0	0	0	0	
16750000725.6798	0	0	-3.13711353620898	-26.7613464749347	0	0	0	0	
16787786230.0918	0	0	-3.22600164876984	155.181941192401	0	0	0	0	
16825571734.5037	0	0	-2.93411099575945	-25.8689164491932	0	0	0	0	
16863357238.9157	0	0	-2.90179215476051	156.735693931895	0	0	0	0	
16901142743.3277	0	0	-2.87142166590853	-22.5269079981392	0	0	0	0	
16938928247.7397	0	0	-3.00173965976796	159.987817732112	0	0	0	0	
16976713752.1516	0	0	-3.31093245029574	-16.9698152599533	0	0	0	0	
17014499256.5636	0	0	-3.51321813629515	167.572664782544	0	0	0	0	
17052284760.9756	0	0	-3.60844463099421	-6.75134368950208	0	0	0	0	
17090070265.3876	0	0	-3.60336742593622	179.94267125224	0	0	0	0	
17127855769.7995	0	0	-3.38104799881719	8.34172636857894	0	0	0	0	
17165641274.2115	0	0	-3.30909731458761	-163.466057121374	0	0	0	0	
17203426778.6235	0	0	-3.08417702206228	25.5870125470584	0	0	0	0	
17241212283.0355	0	0	-3.20788356988241	-146.049139300905	0	0	0	0	
17278997787.4474	0	0	-3.22505099404541	43.5291753818724	0	0	0	0	
17316783291.8594	0	0	-3.55617219705722	-126.028063966199	0	0	0	0	
17354568796.2714	0	0	-3.59897886620682	64.5956044846969	0	0	0	0	
17392354300.6834	0	0	-3.85348421562566	-104.005995478739	0	0	0	0	
17430139805.0953	0	0	-3.42903927562268	88.5617228347267	0	0	0	0	
17467925309.5073	0	0	-3.1846942132964	-79.0188616137778	0	0	0	0	
17505710813.9193	0	0	-2.97701387631635	117.010761886072	0	0	0	0	
17543496318.3313	0	0	-3.05219436414454	-49.5909608153424	0	0	0	0	
17581281822.7432	0	0	-3.41995618492982	143.21714043777	0	0	0	0	
17619067327.1552	0	0	-3.39219943607837	-23.943926144905	0	0	0	0	
17656852831.5672	0	0	-3.18606529295771	171.215165429171	0	0	0	0	
17694638335.9792	0	0	-2.97824771749417	9.05123493177101	0	0	0	0	
17732423840.3911	0	0	-2.89744477176731	-150.647092252577	0	0	0	0	
17770209344.8031	0	0	-2.83623726960907	46.8173749103784	0	0	0	0	
17807994849.2151	0	0	-3.03479060148503	-115.536359249423	0	0	0	0	
17845780353.6271	0	0	-2.7535341929646	81.2296877468028	0	0	0	0	
17883565858.039	0	0	-2.81762491674369	-80.9550936020352	0	0	0	0	
17921351362.451	0	0	-2.8271200687612	116.869039087146	0	0	0	0	
17959136866.863	0	0	-2.83462333130654	-42.5579847104939	0	0	0	0	
17996922371.275	0	0	-2.83503541538884	157.894157506801	0	0	0	0	
18034707875.6869	0	0	-3.39058673306701	3.07578891362162	0	0	0	0	
18072493380.0989	0	0	-3.30601465053722	-156.711323994328	0	0	0	0	
18110278884.5109	0	0	-3.65572715369626	44.2658796334349	0	0	0	0	
18148064388.9229	0	0	-2.92180911091137	-114.998670520265	0	0	0	0	
18185849893.3349	0	0	-3.18759812425747	87.6918674874943	0	0	0	0	
18223635397.7468	0	0	-2.99822560156124	-68.3505357842506	0	0	0	0	
18261420902.1588	0	0	-3.49804953138609	131.312623227368	0	0	0	0	
18299206406.5708	0	0	-2.93995121383604	-24.4517195500109	0	0	0	0	
18336991910.9828	0	0	-2.71643761032747	179.9353447029	0	0	0	0	
18374777415.3947	0	0	-2.77825340546883	30.1421922162378	0	0	0	0	
18412562919.8067	0	0	-2.97373131761143	-126.289880259639	0	0	0	0	
18450348424.2187	0	0	-2.91540771210608	78.5256718036237	0	0	0	0	
18488133928.6307	0	0	-2.69636145705897	-78.1644382381716	0	0	0	0	
18525919433.0426	0	0	-2.54270135020981	127.53741177679	0	0	0	0	
18563704937.4546	0	0	-2.65325334347272	-27.4772716761167	0	0	0	0	
18601490441.8666	0	0	-2.86664503594157	179.450994806968	0	0	0	0	
18639275946.2786	0	0	-3.21919665924019	25.3137448727437	0	0	0	0	
18677061450.6905	0	0	-3.19790603511207	-127.192466671255	0	0	0	0	
18714846955.1025	0	0	-2.93455427599207	80.416813349051	0	0	0	0	
18752632459.5145	0	0	-2.80982374276168	-66.4431463353502	0	0	0	0	
18790417963.9265	0	0	-3.00437150578598	142.53217620085	0	0	0	0	
18828203468.3384	0	0	-3.2876249937379	-9.66100960158446	0	0	0	0	
18865988972.7504	0	0	-2.93160448114474	-161.560986406723	0	0	0	0	
18903774477.1624	0	0	-2.92557725935698	47.2304973023421	0	0	0	0	
18941559981.5744	0	0	-3.03084811512985	-103.237342500252	0	0	0	0	
18979345485.9863	0	0	-2.84190332941017	106.748409290204	0	0	0	0	
19017130990.3983	0	0	-2.81923065765998	-42.2771236019642	0	0	0	0	
19054916494.8103	0	0	-3.09532283497971	171.519297529594	0	0	0	0	
19092701999.2223	0	0	-3.06448096560668	21.4758172128773	0	0	0	0	
19130487503.6342	0	0	-3.17905002775551	-128.297560585808	0	0	0	0	
19168273008.0462	0	0	-2.875122263917	84.5827683116994	0	0	0	0	
19206058512.4582	0	0	-2.96143511921921	-63.4343286471344	0	0	0	0	
19243844016.8702	0	0	-3.13753246685441	149.558365869668	0	0	0	0	
19281629521.2822	0	0	-3.49091289955446	1.48436398101743	0	0	0	0	
19319415025.6941	0	0	-3.52651183966109	-146.838313677795	0	0	0	0	
19357200530.1061	0	0	-3.40117926324088	66.030868977307	0	0	0	0	
19394986034.5181	0	0	-3.37328536206599	-75.5826991514373	0	0	0	0	
19432771538.9301	0	0	-3.79733493873726	139.583735764687	0	0	0	0	
19470557043.342	0	0	-4.16183103744237	-8.15102730403401	0	0	0	0	
19508342547.754	0	0	-3.65385365190439	-154.811763894434	0	0	0	0	
19546128052.166	0	0	-3.39573117195428	61.5439255376171	0	0	0	0	
19583913556.578	0	0	-3.56782547677564	-81.9571658349357	0	0	0	0	
19621699060.9899	0	0	-3.70663324198795	132.655001725934	0	0	0	0	
19659484565.4019	0	0	-3.72776715577087	-11.986240576215	0	0	0	0	
19697270069.8139	0	0	-3.73024974125547	-157.053991910286	0	0	0	0	
19735055574.2259	0	0	-3.60837828663111	58.3840213960325	0	0	0	0	
19772841078.6378	0	0	-3.44651140490203	-84.9131344312487	0	0	0	0	
19810626583.0498	0	0	-3.44937043028831	131.183996791946	0	0	0	0	
19848412087.4618	0	0	-3.54896413867302	-11.8951839011362	0	0	0	0	
19886197591.8738	0	0	-3.46599176895676	-155.922934318432	0	0	0	0	
19923983096.2857	0	0	-3.55060231918376	60.3040132012632	0	0	0	0	
19961768600.6977	0	0	-3.50045127013593	-80.9405008260571	0	0	0	0	
19999554105.1097	0	0	-3.69966553540292	136.670772888244	0	0	0	0	
20037339609.5217	0	0	-3.85626142274195	-2.15982112944378	0	0	0	0	
20075125113.9336	0	0	-3.62653345915823	-145.761033546678	0	0	0	0	
20112910618.3456	0	0	-3.56757724160255	75.5397325647966	0	0	0	0	
20150696122.7576	0	0	-3.71918462944694	-65.2480191944249	0	0	0	0	
20188481627.1696	0	0	-4.00291063085722	151.154640356611	0	0	0	0	
20226267131.5815	0	0	-3.52977233868199	10.1503239661891	0	0	0	0	
20264052635.9935	0	0	-3.26286233484411	-129.771171341026	0	0	0	0	
20301838140.4055	0	0	-3.60829987662385	92.068166576842	0	0	0	0	
20339623644.8175	0	0	-3.50430766640213	-49.5885302770542	0	0	0	0	
20377409149.2295	0	0	-3.59547928893956	168.539342183703	0	0	0	0	
20415194653.6414	0	0	-3.206116912438	29.3806060344837	0	0	0	0	
20452980158.0534	0	0	-3.082278072094	-110.251211836574	0	0	0	0	
20490765662.4654	0	0	-3.24777393748348	110.899373156058	0	0	0	0	
20528551166.8774	0	0	-3.23849357960917	-29.3176807559981	0	0	0	0	
20566336671.2893	0	0	-3.18012575247699	-169.11052907362	0	0	0	0	
20604122175.7013	0	0	-3.26356306262131	51.3422246852982	0	0	0	0	
20641907680.1133	0	0	-3.35572307034673	-87.6733789662775	0	0	0	0	
20679693184.5253	0	0	-3.44647513317779	132.928665818195	0	0	0	0	
20717478688.9372	0	0	-3.35295279620313	-5.67142003446467	0	0	0	0	
20755264193.3492	0	0	-3.35577033807061	-144.213872636123	0	0	0	0	
20793049697.7612	0	0	-3.70680279863236	78.7875719128847	0	0	0	0	
20830835202.1732	0	0	-3.64965587123299	-60.3244351251992	0	0	0	0	
20868620706.5851	0	0	-3.55891374400417	161.126135273852	0	0	0	0	
20906406210.9971	0	0	-3.62388381979821	25.7804673519738	0	0	0	0	
20944191715.4091	0	0	-3.67157840767138	-112.511239230838	0	0	0	0	
20981977219.8211	0	0	-3.85409112730557	109.72722841724	0	0	0	0	
21019762724.233	0	0	-3.58255523303814	-27.2472626163818	0	0	0	0	
21057548228.645	0	0	-3.55573770040196	-162.701803565895	0	0	0	0	
21095333733.057	0	0	-3.75877263994633	61.7884787548352	0	0	0	0	
21133119237.469	0	0	-3.59158437021565	-75.3010203545504	0	0	0	0	
21170904741.8809	0	0	-3.52081925170892	147.430629475548	0	0	0	0	
21208690246.2929	0	0	-3.4800281925718	12.3290278907218	0	0	0	0	
21246475750.7049	0	0	-3.44584043412483	-123.579917927915	0	0	0	0	
21284261255.1169	0	0	-3.42673937300109	99.9876152654129	0	0	0	0	
21322046759.5288	0	0	-3.49120068235579	-34.9342540673987	0	0	0	0	
21359832263.9408	0	0	-3.43996931998832	-170.991329349629	0	0	0	0	
21397617768.3528	0	0	-3.57197210259141	53.4806274924504	0	0	0	0	
21435403272.7648	0	0	-3.58777253247259	-82.4924479307577	0	0	0	0	
21473188777.1768	0	0	-3.51947596882208	141.864081707632	0	0	0	0	
21510974281.5887	0	0	-3.55652540542898	7.28606597647846	0	0	0	0	
21548759786.0007	0	0	-3.69863451886823	-128.25232529703	0	0	0	0	
21586545290.4127	0	0	-3.86763825132638	95.4339727471247	0	0	0	0	
21624330794.8247	0	0	-3.82765402751793	-39.7568648995009	0	0	0	0	
21662116299.2366	0	0	-3.9066848203444	-173.056118434372	0	0	0	0	
21699901803.6486	0	0	-4.13549696834987	51.9597346420996	0	0	0	0	
21737687308.0606	0	0	-4.04305515496909	-83.2402315293874	0	0	0	0	
21775472812.4726	0	0	-3.62489530931322	144.243762784394	0	0	0	0	
21813258316.8845	0	0	-3.97593482538517	12.2292999709748	0	0	0	0	
21851043821.2965	0	0	-4.06152893120033	-122.823063442685	0	0	0	0	
21888829325.7085	0	0	-3.83523349152617	103.148650064419	0	0	0	0	
21926614830.1205	0	0	-3.73121137961866	-29.3017853444792	0	0	0	0	
21964400334.5324	0	0	-3.76086858867315	-163.074456484771	0	0	0	0	
22002185838.9444	0	0	-3.67513281514899	63.5954794751248	0	0	0	0	
22039971343.3564	0	0	-3.73185286556139	-69.0329072947358	0	0	0	0	
22077756847.7684	0	0	-3.71294414350644	158.248998989439	0	0	0	0	
22115542352.1803	0	0	-3.73177515899378	25.702988039563	0	0	0	0	
22153327856.5923	0	0	-3.58157504474223	-106.429273985623	0	0	0	0	
22191113361.0043	0	0	-3.53712821412983	119.867769708832	0	0	0	0	
22228898865.4163	0	0	-3.63308622272001	-11.6794869802892	0	0	0	0	
22266684369.8282	0	0	-3.91152732671204	-142.938727857406	0	0	0	0	
22304469874.2402	0	0	-4.03648933412867	84.4099614748155	0	0	0	0	
22342255378.6522	0	0	-3.83903933401539	-47.8081502817377	0	0	0	0	
22380040883.0642	0	0	-4.0864980829945	-176.808514551533	0	0	0	0	
22417826387.4761	0	0	-4.17897035368982	51.3348929931515	0	0	0	0	
22455611891.8881	0	0	-3.92569579751724	-81.4745773061733	0	0	0	0	
22493397396.3001	0	0	-3.83332469429889	152.259603136124	0	0	0	0	
22531182900.7121	0	0	-3.92828813527862	19.3205860391214	0	0	0	0	
22568968405.1241	0	0	-3.92566508440788	-113.442711627241	0	0	0	0	
22606753909.536	0	0	-3.4684347118091	117.278945117438	0	0	0	0	
22644539413.948	0	0	-3.51151738032427	-14.7444476931691	0	0	0	0	
22682324918.36	0	0	-3.71693954242604	-145.010328271596	0	0	0	0	
22720110422.772	0	0	-3.51793846734036	82.8571246867547	0	0	0	0	
22757895927.1839	0	0	-3.56023901103126	-48.724420347993	0	0	0	0	
22795681431.5959	0	0	-3.4047681625911	-178.715388624855	0	0	0	0	
22833466936.0079	0	0	-3.43230126853227	49.8843732788642	0	0	0	0	
22871252440.4199	0	0	-3.46318333327898	-81.4398935093972	0	0	0	0	
22909037944.8318	0	0	-3.54107045023607	149.290920826547	0	0	0	0	
22946823449.2438	0	0	-3.84274484200215	19.6992485339451	0	0	0	0	
22984608953.6558	0	0	-4.12671207256756	-113.168745933876	0	0	0	0	
23022394458.0678	0	0	-3.59801287001975	118.905654060415	0	0	0	0	
23060179962.4797	0	0	-3.8778952840145	-10.1235567292626	0	0	0	0	
23097965466.8917	0	0	-4.64889747477947	-139.093069922229	0	0	0	0	
23135750971.3037	0	0	-3.7763354665261	90.6515092374964	0	0	0	0	
23173536475.7157	0	0	-3.74504235957253	-36.0169133194066	0	0	0	0	
23211321980.1276	0	0	-4.08824271600875	-163.998268947474	0	0	0	0	
23249107484.5396	0	0	-3.79344805340358	62.7789772032542	0	0	0	0	
23286892988.9516	0	0	-3.51088206523247	-63.9253367167357	0	0	0	0	
23324678493.3636	0	0	-3.700579920217	167.687880121935	0	0	0	0	
23362463997.7755	0	0	-3.80116628125999	37.9254844996101	0	0	0	0	
23400249502.1875	0	0	-3.34401249491631	-91.5126644232177	0	0	0	0	
23438035006.5995	0	0	-3.47020345004547	139.012387576839	0	0	0	0	
23475820511.0115	0	0	-3.56170992424143	12.4816643108484	0	0	0	0	
23513606015.4234	0	0	-3.38580421640539	-118.565791563473	0	0	0	0	
23551391519.8354	0	0	-3.60852494658175	111.268271972334	0	0	0	0	
23589177024.2474	0	0	-3.59014188991275	-14.4311424403646	0	0	0	0	
23626962528.6594	0	0	-3.95321832019419	-144.563694461398	0	0	0	0	
23664748033.0714	0	0	-3.70063787398351	88.4928393978582	0	0	0	0	
23702533537.4833	0	0	-3.70013318935799	-38.4878879810037	0	0	0	0	
23740319041.8953	0	0	-4.37915894395219	-165.296422858287	0	0	0	0	
23778104546.3073	0	0	-3.97646439939785	65.6456229513974	0	0	0	0	
23815890050.7193	0	0	-3.76687556863435	-62.610819583806	0	0	0	0	
23853675555.1312	0	0	-4.39171023055023	174.280269019254	0	0	0	0	
23891461059.5432	0	0	-4.16853676596782	43.4264670613221	0	0	0	0	
23929246563.9552	0	0	-3.77833248086991	-84.1492305264486	0	0	0	0	
