!Agilent N9918A: A.07.57
!Date: Thursday, 22 August 2019 17:56:44
!Timezone: (GMT-08:00) Pacific Time (US & Canada)
!Model: N9918A
!Serial: MY53103598
!GPS Latitude: 
!GPS Longitude: 
!GPS TimeStamp: 0001-01-01 00:00:00Z
!GPS Seconds Since Last Read: 0
!CHECKSUM:1413662048
!Correction: S11()S21(Rdy)S12()S22()
!S2P File: Measurements:S11,S21,S12,S22:
# Hz S DB R 50
16372145681.5601	0	0	-4.53364866528215	110.404369803818	0	0	0	0	
16409931185.972	0	0	-5.6758071168369	-126.195212399912	0	0	0	0	
16447716690.384	0	0	-4.29592693001732	15.8590346482607	0	0	0	0	
16485502194.796	0	0	-6.02841430790792	150.89566393983	0	0	0	0	
16523287699.2079	0	0	-4.88934978983219	-73.8967576812798	0	0	0	0	
16561073203.6199	0	0	-5.14855550638109	65.5840887290896	0	0	0	0	
16598858708.0319	0	0	-6.09250409039392	-157.708560817933	0	0	0	0	
16636644212.4439	0	0	-5.48683677242723	-0.0828892790049991	0	0	0	0	
16674429716.8558	0	0	-5.28003096864054	135.419545079282	0	0	0	0	
16712215221.2678	0	0	-4.48516246728132	-86.9998879797376	0	0	0	0	
16750000725.6798	0	0	-4.68940108571459	56.7595083677375	0	0	0	0	
16787786230.0918	0	0	-5.04469207234347	-158.487045345509	0	0	0	0	
16825571734.5037	0	0	-5.23344813973801	-12.0447816914737	0	0	0	0	
16863357238.9157	0	0	-5.17790602294432	138.095324038657	0	0	0	0	
16901142743.3277	0	0	-5.31726431099623	-70.3197180187575	0	0	0	0	
16938928247.7397	0	0	-5.10631470805972	80.3425840075876	0	0	0	0	
16976713752.1516	0	0	-5.05085497590863	-130.327108025555	0	0	0	0	
17014499256.5636	0	0	-5.25395378142021	21.7728863592749	0	0	0	0	
17052284760.9756	0	0	-5.59537537102845	175.912673118702	0	0	0	0	
17090070265.3876	0	0	-5.85135249689515	-27.9268664078844	0	0	0	0	
17127855769.7995	0	0	-5.57798213015242	128.501544186824	0	0	0	0	
17165641274.2115	0	0	-5.6467060050369	-75.9879298927758	0	0	0	0	
17203426778.6235	0	0	-5.55505278037733	82.3409566684656	0	0	0	0	
17241212283.0355	0	0	-5.7891361413449	-119.544517489466	0	0	0	0	
17278997787.4474	0	0	-5.76439184433093	41.7349628607943	0	0	0	0	
17316783291.8594	0	0	-5.72580421091181	-156.880888017359	0	0	0	0	
17354568796.2714	0	0	-5.71146168719329	4.9772567001981	0	0	0	0	
17392354300.6834	0	0	-5.64406172513896	166.615699853083	0	0	0	0	
17430139805.0953	0	0	-5.78518200411532	-31.0114827143667	0	0	0	0	
17467925309.5073	0	0	-5.53846932252376	132.046826602329	0	0	0	0	
17505710813.9193	0	0	-5.33863267457371	-62.9671688714558	0	0	0	0	
17543496318.3313	0	0	-4.83497935683159	102.077476176308	0	0	0	0	
17581281822.7432	0	0	-4.76124741400762	-91.0705449118091	0	0	0	0	
17619067327.1552	0	0	-4.71566783018264	72.3838710872279	0	0	0	0	
17656852831.5672	0	0	-5.32835779905283	-116.458571380292	0	0	0	0	
17694638335.9792	0	0	-5.659425075207	52.0482537633101	0	0	0	0	
17732423840.3911	0	0	-5.50152511554956	-137.918174661121	0	0	0	0	
17770209344.8031	0	0	-5.37929206624726	33.2001168111989	0	0	0	0	
17807994849.2151	0	0	-4.70776217359966	-158.358571694632	0	0	0	0	
17845780353.6271	0	0	-4.24267834189105	10.4821837946362	0	0	0	0	
17883565858.039	0	0	-4.02812828540997	178.554423575329	0	0	0	0	
17921351362.451	0	0	-4.08768207992818	-11.6472807484538	0	0	0	0	
17959136866.863	0	0	-4.65544653998506	162.405978875537	0	0	0	0	
17996922371.275	0	0	-4.21953301749757	-25.9271923722845	0	0	0	0	
18034707875.6869	0	0	-4.65980573085457	151.049498240359	0	0	0	0	
18072493380.0989	0	0	-3.85526530809975	-34.9704538668111	0	0	0	0	
18110278884.5109	0	0	-3.78856305246265	137.493211599089	0	0	0	0	
18148064388.9229	0	0	-3.34164185629465	-47.9631514267943	0	0	0	0	
18185849893.3349	0	0	-3.25329291095298	127.00745524521	0	0	0	0	
18223635397.7468	0	0	-3.47657347257203	-59.2129087824882	0	0	0	0	
18261420902.1588	0	0	-3.44056184947878	117.186684928003	0	0	0	0	
18299206406.5708	0	0	-4.25508401660275	-68.3056515890123	0	0	0	0	
18336991910.9828	0	0	-3.5823970704284	109.319026127731	0	0	0	0	
18374777415.3947	0	0	-4.03367932438416	-76.0840993003948	0	0	0	0	
18412562919.8067	0	0	-3.73174977430241	107.445374522367	0	0	0	0	
18450348424.2187	0	0	-3.61606791415314	-72.4274500563615	0	0	0	0	
18488133928.6307	0	0	-3.63552941672061	109.123352019647	0	0	0	0	
18525919433.0426	0	0	-3.59228319830082	-71.3858841301133	0	0	0	0	
18563704937.4546	0	0	-3.41812172223205	106.817732620342	0	0	0	0	
18601490441.8666	0	0	-3.30638202575531	-74.5125411248491	0	0	0	0	
18639275946.2786	0	0	-3.32091302994154	106.944495367242	0	0	0	0	
18677061450.6905	0	0	-3.61318385164738	-71.9171107459238	0	0	0	0	
18714846955.1025	0	0	-3.67490965051493	113.628179397373	0	0	0	0	
18752632459.5145	0	0	-3.65376416417619	-63.0229425037061	0	0	0	0	
18790417963.9265	0	0	-3.58374355382127	122.390778218173	0	0	0	0	
18828203468.3384	0	0	-3.49128569047864	-54.2082576730619	0	0	0	0	
18865988972.7504	0	0	-3.50277100082701	126.219890050209	0	0	0	0	
18903774477.1624	0	0	-3.35185436387015	-49.4948498017155	0	0	0	0	
18941559981.5744	0	0	-3.21874589415152	133.435070844254	0	0	0	0	
18979345485.9863	0	0	-3.21475925286572	-42.8056064198594	0	0	0	0	
19017130990.3983	0	0	-3.34259402410259	142.710493729864	0	0	0	0	
19054916494.8103	0	0	-3.555250699015	-31.0992739438606	0	0	0	0	
19092701999.2223	0	0	-3.7840981057915	154.556156531062	0	0	0	0	
19130487503.6342	0	0	-3.81484520699754	-18.6105443538976	0	0	0	0	
19168273008.0462	0	0	-3.66237510357957	169.061075035569	0	0	0	0	
19206058512.4582	0	0	-3.38692407272862	-1.768492201613	0	0	0	0	
19243844016.8702	0	0	-3.27107659767041	-173.063314546737	0	0	0	0	
19281629521.2822	0	0	-3.22889745439438	14.6987259048675	0	0	0	0	
19319415025.6941	0	0	-3.38838996776851	-158.408102042798	0	0	0	0	
19357200530.1061	0	0	-3.61215603340095	29.9025649187852	0	0	0	0	
19394986034.5181	0	0	-3.78235496006746	-141.023217995363	0	0	0	0	
19432771538.9301	0	0	-4.00525334842123	49.5316912511628	0	0	0	0	
19470557043.342	0	0	-3.9554928920344	-116.861311022185	0	0	0	0	
19508342547.754	0	0	-3.90236825727407	75.5983079265705	0	0	0	0	
19546128052.166	0	0	-3.94459716855664	-91.0895896330003	0	0	0	0	
19583913556.578	0	0	-3.72767240683101	99.4221928571647	0	0	0	0	
19621699060.9899	0	0	-3.65522624372572	-70.4882021158357	0	0	0	0	
19659484565.4019	0	0	-3.50480704372615	120.468371942921	0	0	0	0	
19697270069.8139	0	0	-3.592731427229	-49.1561745631187	0	0	0	0	
19735055574.2259	0	0	-3.92329080394536	142.739955964011	0	0	0	0	
19772841078.6378	0	0	-3.71988967719116	-24.2383338209044	0	0	0	0	
19810626583.0498	0	0	-3.80610627271175	168.320390573982	0	0	0	0	
19848412087.4618	0	0	-3.69324506104757	2.90514222668024	0	0	0	0	
19886197591.8738	0	0	-3.72895233373802	-164.907096028179	0	0	0	0	
19923983096.2857	0	0	-3.74087012609729	29.6392141446503	0	0	0	0	
19961768600.6977	0	0	-3.63609714981971	-138.242543043427	0	0	0	0	
19999554105.1097	0	0	-3.69851783352302	55.0691492098966	0	0	0	0	
20037339609.5217	0	0	-3.89132812855777	-108.052988063179	0	0	0	0	
20075125113.9336	0	0	-3.80515893898896	87.4408741772917	0	0	0	0	
20112910618.3456	0	0	-4.16331176765219	-76.894253160251	0	0	0	0	
20150696122.7576	0	0	-4.19745011085715	119.541434479031	0	0	0	0	
20188481627.1696	0	0	-4.54862864972544	-45.5729167454282	0	0	0	0	
20226267131.5815	0	0	-4.27335419717929	153.29402671722	0	0	0	0	
20264052635.9935	0	0	-4.03196714281847	-10.9479503377507	0	0	0	0	
20301838140.4055	0	0	-4.14775161631339	-174.303921620118	0	0	0	0	
20339623644.8175	0	0	-3.72905965638385	22.6421926638235	0	0	0	0	
20377409149.2295	0	0	-3.69068990357843	-141.66769466409	0	0	0	0	
20415194653.6414	0	0	-3.71719995231275	55.3348522539856	0	0	0	0	
20452980158.0534	0	0	-3.8873203638363	-108.481094639816	0	0	0	0	
20490765662.4654	0	0	-3.97346845609378	89.6034845329079	0	0	0	0	
20528551166.8774	0	0	-4.06012376656042	-70.5714578240477	0	0	0	0	
20566336671.2893	0	0	-3.93033698489889	127.898690193526	0	0	0	0	
20604122175.7013	0	0	-4.06271952308894	-32.6096400745571	0	0	0	0	
20641907680.1133	0	0	-3.98489421100755	165.400508333392	0	0	0	0	
20679693184.5253	0	0	-3.88606861079222	4.05596937096609	0	0	0	0	
20717478688.9372	0	0	-3.94920403051189	-158.004380624572	0	0	0	0	
20755264193.3492	0	0	-3.95856015859053	40.8148290957061	0	0	0	0	
20793049697.7612	0	0	-3.9941641961672	-120.464517240833	0	0	0	0	
20830835202.1732	0	0	-4.09154081523354	80.7627350320607	0	0	0	0	
20868620706.5851	0	0	-4.29591647185642	-79.6144213189968	0	0	0	0	
20906406210.9971	0	0	-4.51081507363059	122.100371243649	0	0	0	0	
20944191715.4091	0	0	-4.42780622407954	-38.0075604986357	0	0	0	0	
20981977219.8211	0	0	-4.66466926496688	161.34270896619	0	0	0	0	
21019762724.233	0	0	-4.18489164366152	5.92527061623893	0	0	0	0	
21057548228.645	0	0	-4.02882387642531	-153.878522096731	0	0	0	0	
21095333733.057	0	0	-4.36544099747555	47.4587609429484	0	0	0	0	
21133119237.469	0	0	-4.2521990473849	-110.943497102796	0	0	0	0	
21170904741.8809	0	0	-4.02945503216744	90.4166221912209	0	0	0	0	
21208690246.2929	0	0	-4.1205293605661	-67.174318497472	0	0	0	0	
21246475750.7049	0	0	-4.15844319081309	134.871433290204	0	0	0	0	
21284261255.1169	0	0	-4.35092140707874	-21.1183022513699	0	0	0	0	
21322046759.5288	0	0	-4.33274402326344	-176.446452554266	0	0	0	0	
21359832263.9408	0	0	-4.24784533112844	26.6140343968852	0	0	0	0	
21397617768.3528	0	0	-4.1457837621963	-130.152396758336	0	0	0	0	
21435403272.7648	0	0	-3.99123084743697	73.4284165135524	0	0	0	0	
21473188777.1768	0	0	-3.9589074945821	-82.9553743840277	0	0	0	0	
21510974281.5887	0	0	-4.10876502659177	119.407932840403	0	0	0	0	
21548759786.0007	0	0	-4.28567312288207	-38.6179538796419	0	0	0	0	
21586545290.4127	0	0	-4.73661153957085	161.640937753118	0	0	0	0	
21624330794.8247	0	0	-4.48983211223556	8.56908514045498	0	0	0	0	
21662116299.2366	0	0	-4.49129420539836	-149.398974828293	0	0	0	0	
21699901803.6486	0	0	-5.14175982127889	55.3154042381651	0	0	0	0	
21737687308.0606	0	0	-4.78586911324883	-102.522116178	0	0	0	0	
21775472812.4726	0	0	-4.58595938743031	100.345008883408	0	0	0	0	
21813258316.8845	0	0	-4.20571199469266	-55.662190972218	0	0	0	0	
21851043821.2965	0	0	-4.08583748390108	145.907990308963	0	0	0	0	
21888829325.7085	0	0	-4.4042763654609	-6.78098803344711	0	0	0	0	
21926614830.1205	0	0	-4.38964383234369	-161.27245849592	0	0	0	0	
21964400334.5324	0	0	-4.47601648965047	45.719098054737	0	0	0	0	
22002185838.9444	0	0	-4.21887402148289	-107.596786478212	0	0	0	0	
22039971343.3564	0	0	-4.4773185661563	100.580929085046	0	0	0	0	
22077756847.7684	0	0	-4.49546819399885	-52.4462382753572	0	0	0	0	
22115542352.1803	0	0	-4.64259074952343	152.747472793443	0	0	0	0	
22153327856.5923	0	0	-4.66195978954719	0.530299943997447	0	0	0	0	
22191113361.0043	0	0	-4.60267675301545	-154.338244474567	0	0	0	0	
22228898865.4163	0	0	-4.77644885436807	51.8524752229967	0	0	0	0	
22266684369.8282	0	0	-4.75747476774622	-101.805226283178	0	0	0	0	
22304469874.2402	0	0	-5.00116091030375	105.28330759969	0	0	0	0	
22342255378.6522	0	0	-5.2729584386384	-47.774820616062	0	0	0	0	
22380040883.0642	0	0	-5.16647667016018	161.928988343725	0	0	0	0	
22417826387.4761	0	0	-5.61053979298946	12.9479688018735	0	0	0	0	
22455611891.8881	0	0	-5.87956325078692	-137.022683102668	0	0	0	0	
22493397396.3001	0	0	-6.00569690591723	67.3307280932079	0	0	0	0	
22531182900.7121	0	0	-5.0950687602646	-82.3168682348234	0	0	0	0	
22568968405.1241	0	0	-4.97997976605844	127.178909453583	0	0	0	0	
22606753909.536	0	0	-5.0229394339094	-25.7950106721002	0	0	0	0	
22644539413.948	0	0	-5.25331072764547	-178.87579917771	0	0	0	0	
22682324918.36	0	0	-5.29054980712433	31.363941146168	0	0	0	0	
22720110422.772	0	0	-5.28274665014441	-122.50961511124	0	0	0	0	
22757895927.1839	0	0	-5.17186872483833	90.1837688436246	0	0	0	0	
22795681431.5959	0	0	-5.25605014633917	-61.9392713690909	0	0	0	0	
22833466936.0079	0	0	-5.79828102812797	143.41998860966	0	0	0	0	
22871252440.4199	0	0	-5.3179211031763	-6.63023733156723	0	0	0	0	
22909037944.8318	0	0	-5.47405448105202	-156.285501707234	0	0	0	0	
22946823449.2438	0	0	-5.64409409158975	53.9624674902972	0	0	0	0	
22984608953.6558	0	0	-5.53792538835979	-97.9382069461725	0	0	0	0	
23022394458.0678	0	0	-5.3125892610394	111.1028199168	0	0	0	0	
23060179962.4797	0	0	-5.6264054455368	-39.9099220581064	0	0	0	0	
23097965466.8917	0	0	-6.06285568793623	173.555118276025	0	0	0	0	
23135750971.3037	0	0	-6.61258914043464	22.9825489490419	0	0	0	0	
23173536475.7157	0	0	-7.00380365142198	-125.868688979112	0	0	0	0	
23211321980.1276	0	0	-6.34666297473098	88.2192941274901	0	0	0	0	
23249107484.5396	0	0	-6.13533254328715	-55.4692359762303	0	0	0	0	
23286892988.9516	0	0	-6.18464714950864	159.480130176609	0	0	0	0	
23324678493.3636	0	0	-5.44819250704084	5.93387886240875	0	0	0	0	
23362463997.7755	0	0	-5.19046112257683	-144.761063539816	0	0	0	0	
23400249502.1875	0	0	-5.10997732026121	64.935294829597	0	0	0	0	
23438035006.5995	0	0	-5.11511970880779	-83.9110346246378	0	0	0	0	
23475820511.0115	0	0	-5.50012774958859	127.166513981682	0	0	0	0	
23513606015.4234	0	0	-5.22206593822884	-22.8940047177819	0	0	0	0	
23551391519.8354	0	0	-5.0524506206389	-171.081949380125	0	0	0	0	
23589177024.2474	0	0	-5.17251461499176	43.769160276326	0	0	0	0	
23626962528.6594	0	0	-4.99757266961814	-107.779949708917	0	0	0	0	
23664748033.0714	0	0	-5.34359076382325	103.39512086123	0	0	0	0	
23702533537.4833	0	0	-5.31247870182197	-44.3942028479931	0	0	0	0	
23740319041.8953	0	0	-5.42001306856294	167.925642297964	0	0	0	0	
23778104546.3073	0	0	-5.7157073231914	21.0631493385435	0	0	0	0	
23815890050.7193	0	0	-5.85715915213566	-128.047137281985	0	0	0	0	
23853675555.1312	0	0	-5.30280526316532	87.4246798273336	0	0	0	0	
23891461059.5432	0	0	-5.7802088600716	-57.7171565829288	0	0	0	0	
23929246563.9552	0	0	-6.26041410760108	156.137565386277	0	0	0	0	
