!Agilent N9918A: A.07.57
!Date: Thursday, 22 August 2019 16:16:21
!Timezone: (GMT-08:00) Pacific Time (US & Canada)
!Model: N9918A
!Serial: MY53103598
!GPS Latitude: 
!GPS Longitude: 
!GPS TimeStamp: 0001-01-01 00:00:00Z
!GPS Seconds Since Last Read: 0
!CHECKSUM:0273885126
!Correction: S11()S21(Rdy)S12()S22()
!S2P File: Measurements:S11,S21,S12,S22:
# Hz S DB R 50
16372145681.5601	0	0	-2.34289878874349	-38.6765444589258	0	0	0	0	
16409931185.972	0	0	-2.19627251853838	-67.3633476751767	0	0	0	0	
16447716690.384	0	0	-2.31230486539054	-96.3548300056342	0	0	0	0	
16485502194.796	0	0	-2.47602834594074	-124.286616034739	0	0	0	0	
16523287699.2079	0	0	-2.63031887809483	-151.407240003816	0	0	0	0	
16561073203.6199	0	0	-2.67125345296037	-178.189111921654	0	0	0	0	
16598858708.0319	0	0	-2.5148176228767	154.903209133264	0	0	0	0	
16636644212.4439	0	0	-2.32594759202962	126.642166519043	0	0	0	0	
16674429716.8558	0	0	-2.37801307498366	97.8139252707836	0	0	0	0	
16712215221.2678	0	0	-2.59044890585215	70.1028023220454	0	0	0	0	
16750000725.6798	0	0	-2.68483996800628	44.1751404378792	0	0	0	0	
16787786230.0918	0	0	-2.40048852917975	17.7164151838598	0	0	0	0	
16825571734.5037	0	0	-2.09033649886811	-10.8643214214911	0	0	0	0	
16863357238.9157	0	0	-2.07930059766947	-40.4798895156829	0	0	0	0	
16901142743.3277	0	0	-2.19054764269892	-68.4367359315662	0	0	0	0	
16938928247.7397	0	0	-2.21428948876661	-96.453844202146	0	0	0	0	
16976713752.1516	0	0	-2.32069197762225	-125.018179142868	0	0	0	0	
17014499256.5636	0	0	-2.58435358319378	-153.231915165716	0	0	0	0	
17052284760.9756	0	0	-2.94728869455671	-179.508325788557	0	0	0	0	
17090070265.3876	0	0	-3.09826351490178	155.60170955533	0	0	0	0	
17127855769.7995	0	0	-2.92695371282586	130.031356967076	0	0	0	0	
17165641274.2115	0	0	-2.75439641159901	103.012099981829	0	0	0	0	
17203426778.6235	0	0	-2.74234119906482	75.2025759794645	0	0	0	0	
17241212283.0355	0	0	-2.86533685560894	48.0208002767527	0	0	0	0	
17278997787.4474	0	0	-2.96063426080091	21.7864587480937	0	0	0	0	
17316783291.8594	0	0	-2.89465305374201	-4.67497860372274	0	0	0	0	
17354568796.2714	0	0	-2.75668395474432	-32.2604148116217	0	0	0	0	
17392354300.6834	0	0	-2.75984470738918	-60.9857264709949	0	0	0	0	
17430139805.0953	0	0	-3.02754452558912	-89.4787400649332	0	0	0	0	
17467925309.5073	0	0	-3.3589868216623	-116.740253183514	0	0	0	0	
17505710813.9193	0	0	-3.4979851428807	-142.734280715857	0	0	0	0	
17543496318.3313	0	0	-3.45782501606502	-169.410772996452	0	0	0	0	
17581281822.7432	0	0	-3.52208005948916	163.445817398148	0	0	0	0	
17619067327.1552	0	0	-3.7012850941274	136.485970265609	0	0	0	0	
17656852831.5672	0	0	-3.81055945347875	111.606289089673	0	0	0	0	
17694638335.9792	0	0	-3.65666231962191	86.6296359476496	0	0	0	0	
17732423840.3911	0	0	-3.39315600743829	61.2385639689909	0	0	0	0	
17770209344.8031	0	0	-3.14224074361476	34.1607360826168	0	0	0	0	
17807994849.2151	0	0	-2.97205056282241	7.14482877333986	0	0	0	0	
17845780353.6271	0	0	-2.82946409854135	-19.6304412556571	0	0	0	0	
17883565858.039	0	0	-2.63726323054101	-47.4579372801209	0	0	0	0	
17921351362.451	0	0	-2.57827204293677	-76.0342169930721	0	0	0	0	
17959136866.863	0	0	-2.87596970780481	-104.152638641319	0	0	0	0	
17996922371.275	0	0	-3.26564075673616	-130.347583853309	0	0	0	0	
18034707875.6869	0	0	-3.39392266735613	-154.560833791199	0	0	0	0	
18072493380.0989	0	0	-3.22867064980436	-178.628258968313	0	0	0	0	
18110278884.5109	0	0	-2.84426516413689	155.316067987147	0	0	0	0	
18148064388.9229	0	0	-2.51932879459605	127.509949321057	0	0	0	0	
18185849893.3349	0	0	-2.48960608911309	99.6258383750173	0	0	0	0	
18223635397.7468	0	0	-2.4593835978336	72.5952906203327	0	0	0	0	
18261420902.1588	0	0	-2.25100993379471	45.5289753119508	0	0	0	0	
18299206406.5708	0	0	-2.11171210704806	16.7754420896528	0	0	0	0	
18336991910.9828	0	0	-2.26481068944445	-12.2993366094697	0	0	0	0	
18374777415.3947	0	0	-2.59132495382119	-39.4102946817695	0	0	0	0	
18412562919.8067	0	0	-2.65078376622244	-64.3011151520331	0	0	0	0	
18450348424.2187	0	0	-2.38363620426551	-89.7293760505895	0	0	0	0	
18488133928.6307	0	0	-2.00241578463018	-117.565271396459	0	0	0	0	
18525919433.0426	0	0	-1.9142165890249	-146.150430561156	0	0	0	0	
18563704937.4546	0	0	-2.02026389462768	-174.511693223222	0	0	0	0	
18601490441.8666	0	0	-2.09842527651683	158.145358458866	0	0	0	0	
18639275946.2786	0	0	-2.18191712918933	131.274807004835	0	0	0	0	
18677061450.6905	0	0	-2.25205508861638	104.084053093585	0	0	0	0	
18714846955.1025	0	0	-2.39105376493232	77.2051670240811	0	0	0	0	
18752632459.5145	0	0	-2.5491185858679	51.0573726226224	0	0	0	0	
18790417963.9265	0	0	-2.60400607811032	25.6806894216888	0	0	0	0	
18828203468.3384	0	0	-2.48561997150047	0.254897614617481	0	0	0	0	
18865988972.7504	0	0	-2.21355749999847	-26.5149595911943	0	0	0	0	
18903774477.1624	0	0	-2.03314975989289	-54.5342458449944	0	0	0	0	
18941559981.5744	0	0	-2.12985838402062	-83.0446133554369	0	0	0	0	
18979345485.9863	0	0	-2.38942418994691	-109.779577121564	0	0	0	0	
19017130990.3983	0	0	-2.54033059625621	-135.171713468893	0	0	0	0	
19054916494.8103	0	0	-2.46101118056769	-160.351882292065	0	0	0	0	
19092701999.2223	0	0	-2.2877263691435	173.439444297817	0	0	0	0	
19130487503.6342	0	0	-2.14902801675856	146.349488409122	0	0	0	0	
19168273008.0462	0	0	-2.04107931633709	119.081632251986	0	0	0	0	
19206058512.4582	0	0	-2.06117320994175	91.4578484112809	0	0	0	0	
19243844016.8702	0	0	-2.19129536797609	63.6682413603445	0	0	0	0	
19281629521.2822	0	0	-2.47500825415049	36.66056113385	0	0	0	0	
19319415025.6941	0	0	-2.73999606541272	11.3001510255734	0	0	0	0	
19357200530.1061	0	0	-2.79491221123241	-13.3753302216555	0	0	0	0	
19394986034.5181	0	0	-2.68560281047617	-38.1599327346134	0	0	0	0	
19432771538.9301	0	0	-2.44965718596168	-64.3338919983131	0	0	0	0	
19470557043.342	0	0	-2.2678195490687	-92.2860282804601	0	0	0	0	
19508342547.754	0	0	-2.23661279268161	-120.723295664278	0	0	0	0	
19546128052.166	0	0	-2.43118038417017	-148.447851993793	0	0	0	0	
19583913556.578	0	0	-2.64279185305556	-174.865040879971	0	0	0	0	
19621699060.9899	0	0	-2.7182054914714	159.512729520295	0	0	0	0	
19659484565.4019	0	0	-2.60372232802676	133.731849153508	0	0	0	0	
19697270069.8139	0	0	-2.47150357303291	106.680329432033	0	0	0	0	
19735055574.2259	0	0	-2.43401200632881	78.9498144039641	0	0	0	0	
19772841078.6378	0	0	-2.46814452931206	51.712074929185	0	0	0	0	
19810626583.0498	0	0	-2.54955798183858	24.7315430018741	0	0	0	0	
19848412087.4618	0	0	-2.57536314368272	-1.78380124635272	0	0	0	0	
19886197591.8738	0	0	-2.60774680006786	-28.1246318509562	0	0	0	0	
19923983096.2857	0	0	-2.62868903835238	-54.379341441377	0	0	0	0	
19961768600.6977	0	0	-2.53512036526518	-80.8734786732685	0	0	0	0	
19999554105.1097	0	0	-2.46226418380071	-108.140213213651	0	0	0	0	
20037339609.5217	0	0	-2.55741111500071	-132.962706418997	0	0	0	0	
20075125113.9336	0	0	-2.82120096434438	-160.110271961665	0	0	0	0	
20112910618.3456	0	0	-3.08868824709547	174.052080113313	0	0	0	0	
20150696122.7576	0	0	-3.2979515295535	148.837187507542	0	0	0	0	
20188481627.1696	0	0	-3.26652703905832	124.421388380036	0	0	0	0	
20226267131.5815	0	0	-3.09014996739935	99.2578082085704	0	0	0	0	
20264052635.9935	0	0	-2.81750854386586	73.1466301020745	0	0	0	0	
20301838140.4055	0	0	-2.58368141824152	45.671327810513	0	0	0	0	
20339623644.8175	0	0	-2.61203258316313	18.0834654586337	0	0	0	0	
20377409149.2295	0	0	-2.68994192572587	-8.46122021305663	0	0	0	0	
20415194653.6414	0	0	-2.74197029931876	-33.9604997719539	0	0	0	0	
20452980158.0534	0	0	-2.5139489873896	-60.0109653037608	0	0	0	0	
20490765662.4654	0	0	-2.52653435476414	-87.2791540020418	0	0	0	0	
20528551166.8774	0	0	-2.63371899163694	-113.927272197922	0	0	0	0	
20566336671.2893	0	0	-2.65658418852331	-140.847661283053	0	0	0	0	
20604122175.7013	0	0	-2.7075696369402	-167.396362207437	0	0	0	0	
20641907680.1133	0	0	-2.84371186266942	166.001471217615	0	0	0	0	
20679693184.5253	0	0	-2.92406940423966	139.536472756488	0	0	0	0	
20717478688.9372	0	0	-3.03019538096526	113.236560449753	0	0	0	0	
20755264193.3492	0	0	-2.98155459830071	86.7832273048341	0	0	0	0	
20793049697.7612	0	0	-2.87711641218376	60.4690049207046	0	0	0	0	
20830835202.1732	0	0	-2.95465870894402	33.9760728282386	0	0	0	0	
20868620706.5851	0	0	-2.9481431161782	6.84302474710231	0	0	0	0	
20906406210.9971	0	0	-3.07876570433976	-19.4627634572758	0	0	0	0	
20944191715.4091	0	0	-3.26826071298281	-45.8760765390122	0	0	0	0	
20981977219.8211	0	0	-3.27098724178175	-71.0036191434639	0	0	0	0	
21019762724.233	0	0	-3.38022192268636	-96.2862743521735	0	0	0	0	
21057548228.645	0	0	-3.07540073757483	-121.485823260975	0	0	0	0	
21095333733.057	0	0	-2.99787147598699	-147.589027494483	0	0	0	0	
21133119237.469	0	0	-2.89386829676322	-174.302267320945	0	0	0	0	
21170904741.8809	0	0	-2.87983499638671	157.995044587813	0	0	0	0	
21208690246.2929	0	0	-2.8710613907603	132.023351020697	0	0	0	0	
21246475750.7049	0	0	-2.88190189617457	105.840738265203	0	0	0	0	
21284261255.1169	0	0	-2.91799785751204	78.8652657347784	0	0	0	0	
21322046759.5288	0	0	-2.95021162033598	52.6228990590725	0	0	0	0	
21359832263.9408	0	0	-3.02047543842867	26.6165830116628	0	0	0	0	
21397617768.3528	0	0	-2.93391938220542	0.442604897097257	0	0	0	0	
21435403272.7648	0	0	-3.03325533153797	-26.8312237238432	0	0	0	0	
21473188777.1768	0	0	-3.14267293994731	-53.6650606913127	0	0	0	0	
21510974281.5887	0	0	-3.22011374624347	-80.0943990331271	0	0	0	0	
21548759786.0007	0	0	-3.27016089085465	-106.446410120199	0	0	0	0	
21586545290.4127	0	0	-3.30980205590804	-133.137100335104	0	0	0	0	
21624330794.8247	0	0	-3.20535732780745	-160.015581085364	0	0	0	0	
21662116299.2366	0	0	-3.3176760300977	173.140707683518	0	0	0	0	
21699901803.6486	0	0	-3.36598812055491	145.86539756027	0	0	0	0	
21737687308.0606	0	0	-3.56576657066618	118.65473526378	0	0	0	0	
21775472812.4726	0	0	-3.62696982180427	93.4420455713161	0	0	0	0	
21813258316.8845	0	0	-3.73173384403731	69.0049525229922	0	0	0	0	
21851043821.2965	0	0	-3.53454703774072	43.2148730967897	0	0	0	0	
21888829325.7085	0	0	-3.41373960900434	17.3304431923307	0	0	0	0	
21926614830.1205	0	0	-3.24196908809587	-9.67546742860792	0	0	0	0	
21964400334.5324	0	0	-3.31816066622831	-36.6252972867571	0	0	0	0	
22002185838.9444	0	0	-3.31864208807567	-62.6997459574261	0	0	0	0	
22039971343.3564	0	0	-3.21172147913424	-88.5210787391019	0	0	0	0	
22077756847.7684	0	0	-3.4057723252208	-116.471261571052	0	0	0	0	
22115542352.1803	0	0	-3.41712318041886	-142.517946177081	0	0	0	0	
22153327856.5923	0	0	-3.35575578328611	-168.620331243694	0	0	0	0	
22191113361.0043	0	0	-3.35593019137798	165.300330508935	0	0	0	0	
22228898865.4163	0	0	-3.52975338607933	138.453565777508	0	0	0	0	
22266684369.8282	0	0	-3.82025543248458	111.397957051333	0	0	0	0	
22304469874.2402	0	0	-4.02712800294516	86.7567801894399	0	0	0	0	
22342255378.6522	0	0	-4.07867922502918	63.1988450512966	0	0	0	0	
22380040883.0642	0	0	-4.11534532264608	38.9754765976673	0	0	0	0	
22417826387.4761	0	0	-3.96253041665384	13.4457601509469	0	0	0	0	
22455611891.8881	0	0	-3.65905936438964	-13.4293563955254	0	0	0	0	
22493397396.3001	0	0	-3.6100404907103	-39.914611609679	0	0	0	0	
22531182900.7121	0	0	-3.62822636739754	-67.370363135745	0	0	0	0	
22568968405.1241	0	0	-3.79111043018356	-92.9054925616531	0	0	0	0	
22606753909.536	0	0	-4.01858933433051	-118.004745982274	0	0	0	0	
22644539413.948	0	0	-3.82117491843892	-143.114462871928	0	0	0	0	
22682324918.36	0	0	-3.55001336083139	-169.402903116222	0	0	0	0	
22720110422.772	0	0	-3.37798081481587	162.668645550072	0	0	0	0	
22757895927.1839	0	0	-3.52584315605712	135.01250088647	0	0	0	0	
22795681431.5959	0	0	-3.71836230914831	109.370418134036	0	0	0	0	
22833466936.0079	0	0	-3.89189552148984	83.381527004695	0	0	0	0	
22871252440.4199	0	0	-3.95887576276435	56.2145497552144	0	0	0	0	
22909037944.8318	0	0	-4.04478637562347	31.2306039958763	0	0	0	0	
22946823449.2438	0	0	-4.03918094970578	6.2638419249035	0	0	0	0	
22984608953.6558	0	0	-3.82936625015424	-19.7255027382168	0	0	0	0	
23022394458.0678	0	0	-3.82973533293283	-47.8507972404589	0	0	0	0	
23060179962.4797	0	0	-4.18011577574001	-75.1351688603322	0	0	0	0	
23097965466.8917	0	0	-4.66881434973285	-101.279188901303	0	0	0	0	
23135750971.3037	0	0	-5.08547804139017	-124.597406722621	0	0	0	0	
23173536475.7157	0	0	-5.04619959572913	-146.629936499619	0	0	0	0	
23211321980.1276	0	0	-4.64693680883336	-169.799083323583	0	0	0	0	
23249107484.5396	0	0	-4.12605364040648	164.753084328322	0	0	0	0	
23286892988.9516	0	0	-3.81640264386928	137.583411231888	0	0	0	0	
23324678493.3636	0	0	-3.61316178786823	109.919978594231	0	0	0	0	
23362463997.7755	0	0	-3.843659824463	81.6803577603862	0	0	0	0	
23400249502.1875	0	0	-3.93511370287744	55.2750919756805	0	0	0	0	
23438035006.5995	0	0	-4.10027668600304	30.0084195020214	0	0	0	0	
23475820511.0115	0	0	-4.10966208169746	3.65693349153569	0	0	0	0	
23513606015.4234	0	0	-3.92161685128021	-22.5614427268216	0	0	0	0	
23551391519.8354	0	0	-3.99271875593177	-49.0407861911993	0	0	0	0	
23589177024.2474	0	0	-4.25416921547087	-74.8749003686232	0	0	0	0	
23626962528.6594	0	0	-4.309387357704	-100.197678090904	0	0	0	0	
23664748033.0714	0	0	-4.42078333678347	-126.705219913715	0	0	0	0	
23702533537.4833	0	0	-4.58165636627504	-151.183390829548	0	0	0	0	
23740319041.8953	0	0	-4.70101749935586	-174.939468287924	0	0	0	0	
23778104546.3073	0	0	-4.5458594182035	159.464524935213	0	0	0	0	
23815890050.7193	0	0	-4.39053612320051	133.865805004789	0	0	0	0	
23853675555.1312	0	0	-4.35120297039186	107.671158440861	0	0	0	0	
23891461059.5432	0	0	-4.5459964458519	80.492812271904	0	0	0	0	
23929246563.9552	0	0	-4.66199775812949	55.5112120571048	0	0	0	0	
