!Agilent N9918A: A.07.57
!Date: Thursday, 05 September 2019 10:37:12
!Timezone: (GMT-08:00) Pacific Time (US & Canada)
!Model: N9918A
!Serial: MY53103598
!GPS Latitude: 
!GPS Longitude: 
!GPS TimeStamp: 0001-01-01 00:00:00Z
!GPS Seconds Since Last Read: 0
!CHECKSUM:0675992618
!Correction: S11()S21(Rdy)S12()S22()
!S2P File: Measurements:S11,S21,S12,S22:
# Hz S DB R 50
16000000000	0	0	-5.29562273321198	-33.4261646369319	0	0	0	0	
16052500000	0	0	-5.74546798607958	107.738104626969	0	0	0	0	
16105000000	0	0	-6.33869255172566	-102.070087503717	0	0	0	0	
16157500000	0	0	-5.48191798436151	38.2271092035027	0	0	0	0	
16210000000	0	0	-5.37039707709713	-177.381349953387	0	0	0	0	
16262500000	0	0	-5.95214345994457	-31.2825469886869	0	0	0	0	
16315000000	0	0	-7.02057476225311	119.968240236553	0	0	0	0	
16367500000	0	0	-6.74411140193161	-81.4778228894626	0	0	0	0	
16420000000	0	0	-7.14650935564223	76.6313676922208	0	0	0	0	
16472500000	0	0	-8.93183846688573	-123.215931637986	0	0	0	0	
16525000000	0	0	-6.16531153366943	48.6219010161489	0	0	0	0	
16577500000	0	0	-6.70506142019682	-157.933236681389	0	0	0	0	
16630000000	0	0	-7.0330812505016	5.18281912838947	0	0	0	0	
16682500000	0	0	-6.26116767679518	-177.388809610346	0	0	0	0	
16735000000	0	0	-6.20832819282556	-14.8605666389049	0	0	0	0	
16787500000	0	0	-5.34024618861666	156.642566818016	0	0	0	0	
16840000000	0	0	-5.10200896670362	-34.6839872030427	0	0	0	0	
16892500000	0	0	-5.68191308267133	141.962331314952	0	0	0	0	
16945000000	0	0	-6.45843310056659	-51.7486011404299	0	0	0	0	
16997500000	0	0	-6.73681870249455	116.413509784345	0	0	0	0	
17050000000	0	0	-6.32875968478284	-67.9232313563062	0	0	0	0	
17102500000	0	0	-5.75540236697829	116.666336914365	0	0	0	0	
17155000000	0	0	-5.94846459126485	-53.6765237833997	0	0	0	0	
17207500000	0	0	-6.05484896052152	122.105568760717	0	0	0	0	
17260000000	0	0	-6.21846406758116	-59.6412015611862	0	0	0	0	
17312500000	0	0	-5.93164783742279	116.8635313949	0	0	0	0	
17365000000	0	0	-6.38382291833749	-63.5018043784553	0	0	0	0	
17417500000	0	0	-6.18741091022233	116.376647192177	0	0	0	0	
17470000000	0	0	-5.76025545431296	-60.8730529056726	0	0	0	0	
17522500000	0	0	-5.6538347384803	126.523045264736	0	0	0	0	
17575000000	0	0	-6.06904224381457	-50.9499795330078	0	0	0	0	
17627500000	0	0	-6.2339691762456	128.72835923391	0	0	0	0	
17680000000	0	0	-5.67305142451876	-45.5885716599266	0	0	0	0	
17732500000	0	0	-6.03402696202178	150.383843270166	0	0	0	0	
17785000000	0	0	-7.22725978659926	-18.680826809787	0	0	0	0	
17837500000	0	0	-6.97124633781146	166.146863571802	0	0	0	0	
17890000000	0	0	-6.53122445479093	-5.01625505925983	0	0	0	0	
17942500000	0	0	-5.71290551183545	-175.473330620514	0	0	0	0	
17995000000	0	0	-5.8029034734202	11.2738014583038	0	0	0	0	
18047500000	0	0	-5.44601050748349	-153.379074462304	0	0	0	0	
18100000000	0	0	-5.8425135315013	34.7044343857876	0	0	0	0	
18152500000	0	0	-5.4597602416836	-132.933329168377	0	0	0	0	
18205000000	0	0	-5.4113549004377	58.4691125782925	0	0	0	0	
18257500000	0	0	-6.73989303326426	-101.992150671763	0	0	0	0	
18310000000	0	0	-7.00248076779085	89.5296990972017	0	0	0	0	
18362500000	0	0	-5.63770952976607	-76.4989388514346	0	0	0	0	
18415000000	0	0	-5.67022964726087	119.892755435082	0	0	0	0	
18467500000	0	0	-6.25108430561605	-42.3817414761587	0	0	0	0	
18520000000	0	0	-6.70824191913302	152.790955468861	0	0	0	0	
18572500000	0	0	-6.63941777064237	-12.452467457608	0	0	0	0	
18625000000	0	0	-5.9658822900094	-174.581303918715	0	0	0	0	
18677500000	0	0	-5.46152718116314	26.0796789463977	0	0	0	0	
18730000000	0	0	-5.57512667436088	-137.7664498522	0	0	0	0	
18782500000	0	0	-5.80600730181004	58.295102092089	0	0	0	0	
18835000000	0	0	-6.13053984817453	-102.982741816061	0	0	0	0	
18887500000	0	0	-6.80251051145589	96.0637730221801	0	0	0	0	
18940000000	0	0	-6.7179513321086	-67.336693691141	0	0	0	0	
18992500000	0	0	-5.95363839852956	137.61427354586	0	0	0	0	
19045000000	0	0	-6.15024445790149	-17.7897567036662	0	0	0	0	
19097500000	0	0	-6.31926432774279	179.920160938447	0	0	0	0	
19150000000	0	0	-5.89287355336771	18.4172920571056	0	0	0	0	
19202500000	0	0	-5.71348257776691	-138.508264445085	0	0	0	0	
19255000000	0	0	-5.87679195939211	67.5780092138802	0	0	0	0	
19307500000	0	0	-6.13088555491319	-88.4440329854852	0	0	0	0	
19360000000	0	0	-6.03236610744935	114.198069440412	0	0	0	0	
19412500000	0	0	-5.69648938513207	-42.2073741519796	0	0	0	0	
19465000000	0	0	-5.70196926237885	160.930639184285	0	0	0	0	
19517500000	0	0	-5.72476894801632	5.17454336528077	0	0	0	0	
19570000000	0	0	-6.09788758574974	-148.996771638836	0	0	0	0	
19622500000	0	0	-6.82863935284264	56.0417478803395	0	0	0	0	
19675000000	0	0	-6.49342096619198	-95.6087320505666	0	0	0	0	
19727500000	0	0	-6.22112095294694	112.181040899261	0	0	0	0	
19780000000	0	0	-6.3975959748651	-39.33651520498	0	0	0	0	
19832500000	0	0	-6.37874267295918	166.337004842346	0	0	0	0	
19885000000	0	0	-6.19866932058876	10.967228893011	0	0	0	0	
19937500000	0	0	-6.19378684220844	-142.039930247918	0	0	0	0	
19990000000	0	0	-6.34690141117362	63.8942365298427	0	0	0	0	
20042500000	0	0	-6.32127214098804	-85.480932023665	0	0	0	0	
20095000000	0	0	-6.63465802445976	120.890734978032	0	0	0	0	
20147500000	0	0	-6.54577206457856	-31.2474318186441	0	0	0	0	
20200000000	0	0	-6.59394402840529	177.299063910895	0	0	0	0	
20252500000	0	0	-6.75214408649143	27.0252141533698	0	0	0	0	
20305000000	0	0	-6.71718769041618	-126.020695050597	0	0	0	0	
20357500000	0	0	-6.66771503271963	81.5983135405683	0	0	0	0	
20410000000	0	0	-6.85241901014389	-59.7752616360777	0	0	0	0	
20462500000	0	0	-7.45349862981489	150.681591284149	0	0	0	0	
20515000000	0	0	-6.91606428222207	-2.44460873002931	0	0	0	0	
20567500000	0	0	-6.42252520809014	-148.588184173608	0	0	0	0	
20620000000	0	0	-6.46071612656452	60.711101161248	0	0	0	0	
20672500000	0	0	-6.48162867090933	-90.5187096041561	0	0	0	0	
20725000000	0	0	-6.68528318288332	120.774249578172	0	0	0	0	
20777500000	0	0	-6.80475373459459	-29.0042897569981	0	0	0	0	
20830000000	0	0	-6.62971007399927	-176.725698657167	0	0	0	0	
20882500000	0	0	-6.72414908357918	36.629070488561	0	0	0	0	
20935000000	0	0	-7.22793034065478	-111.545653364505	0	0	0	0	
20987500000	0	0	-6.99809965220496	101.312538219209	0	0	0	0	
21040000000	0	0	-6.99905166837561	-45.9074856674362	0	0	0	0	
21092500000	0	0	-7.39176002296091	164.47923078953	0	0	0	0	
21145000000	0	0	-7.12470760159651	18.6662188869898	0	0	0	0	
21197500000	0	0	-7.10022753920132	-122.497311053126	0	0	0	0	
21250000000	0	0	-7.29290393173273	90.3987330494347	0	0	0	0	
21302500000	0	0	-7.21610403958768	-56.8193820793042	0	0	0	0	
21355000000	0	0	-7.07427939989408	159.697481129701	0	0	0	0	
21407500000	0	0	-6.88437172012985	14.3171823714231	0	0	0	0	
21460000000	0	0	-6.97031925137687	-128.253792435604	0	0	0	0	
21512500000	0	0	-7.32441772546853	88.4320831931968	0	0	0	0	
21565000000	0	0	-6.90731232127811	-55.6826421101571	0	0	0	0	
21617500000	0	0	-6.9037678932519	157.164411172306	0	0	0	0	
21670000000	0	0	-7.62075998135999	9.72939244939843	0	0	0	0	
21722500000	0	0	-7.49734257073735	-141.336120309988	0	0	0	0	
21775000000	0	0	-7.62611434585571	71.0114960985951	0	0	0	0	
21827500000	0	0	-8.16655386735604	-78.0941511648214	0	0	0	0	
21880000000	0	0	-7.58769855458284	134.929633127971	0	0	0	0	
21932500000	0	0	-7.3790513067445	-6.24211570616897	0	0	0	0	
21985000000	0	0	-7.40998364381301	-146.491393562665	0	0	0	0	
22037500000	0	0	-7.38701522985074	71.839826113813	0	0	0	0	
22090000000	0	0	-7.16121266483561	-68.4944716852914	0	0	0	0	
22142500000	0	0	-7.23701239743519	147.972296515605	0	0	0	0	
22195000000	0	0	-7.2606232797251	6.49731541795816	0	0	0	0	
22247500000	0	0	-8.10126065506835	-137.241842551679	0	0	0	0	
22300000000	0	0	-7.66990627167142	78.1519679249142	0	0	0	0	
22352500000	0	0	-7.84097129728575	-56.1198475371451	0	0	0	0	
22405000000	0	0	-8.4074675523087	159.023842876265	0	0	0	0	
22457500000	0	0	-7.85898734957366	15.4997698643595	0	0	0	0	
22510000000	0	0	-8.17974273050926	-120.714514977576	0	0	0	0	
22562500000	0	0	-8.35772143727867	94.5710693307508	0	0	0	0	
22615000000	0	0	-7.54526433051252	-48.0405332578988	0	0	0	0	
22667500000	0	0	-8.15859671396002	177.900834657992	0	0	0	0	
22720000000	0	0	-7.76318003817745	30.9978800947029	0	0	0	0	
22772500000	0	0	-7.32462246690358	-110.473925784672	0	0	0	0	
22825000000	0	0	-7.67736913457563	105.72782397541	0	0	0	0	
22877500000	0	0	-7.33948714381076	-37.3908456898945	0	0	0	0	
22930000000	0	0	-8.29677302510686	-177.533990521172	0	0	0	0	
22982500000	0	0	-8.01267353173548	36.859788273239	0	0	0	0	
23035000000	0	0	-8.0846400142081	-97.1957514933456	0	0	0	0	
23087500000	0	0	-9.09681323491797	123.644300132407	0	0	0	0	
23140000000	0	0	-8.08672856968493	-18.6429314128755	0	0	0	0	
23192500000	0	0	-8.29250823990339	-154.663422989477	0	0	0	0	
23245000000	0	0	-8.93154187738189	63.3130940043667	0	0	0	0	
23297500000	0	0	-7.84143007004387	-73.5584799545037	0	0	0	0	
23350000000	0	0	-7.75479441671716	150.76617738156	0	0	0	0	
23402500000	0	0	-7.77301803571633	6.64334723928599	0	0	0	0	
23455000000	0	0	-7.27551735459585	-132.738991666976	0	0	0	0	
23507500000	0	0	-7.31886027882111	83.2708561336881	0	0	0	0	
23560000000	0	0	-7.51893463545067	-57.7702611834428	0	0	0	0	
23612500000	0	0	-8.25553027361473	163.994276935873	0	0	0	0	
23665000000	0	0	-8.41382833605311	24.2818034347503	0	0	0	0	
23717500000	0	0	-8.16706882422257	-109.747720462147	0	0	0	0	
23770000000	0	0	-8.77193157967188	114.059097534298	0	0	0	0	
23822500000	0	0	-8.53736101975368	-25.5348537335129	0	0	0	0	
23875000000	0	0	-8.40691602111449	-158.607925935019	0	0	0	0	
23927500000	0	0	-8.48770514191292	60.3729819773527	0	0	0	0	
23980000000	0	0	-8.35612667472699	-77.9791864540263	0	0	0	0	
24032500000	0	0	-8.14699911917309	146.102230752142	0	0	0	0	
24085000000	0	0	-7.7973920953872	6.46494067698803	0	0	0	0	
24137500000	0	0	-7.65201018608217	-131.977653955791	0	0	0	0	
24190000000	0	0	-8.02023285004575	87.0743240486729	0	0	0	0	
24242500000	0	0	-7.94906871397222	-51.8404349760017	0	0	0	0	
24295000000	0	0	-8.71211075804523	171.902300064201	0	0	0	0	
24347500000	0	0	-8.37099109881012	33.9422493382443	0	0	0	0	
24400000000	0	0	-8.47183167066592	-103.22428754692	0	0	0	0	
24452500000	0	0	-9.17807229023896	119.954806825353	0	0	0	0	
24505000000	0	0	-8.70229984162815	-14.1407517521096	0	0	0	0	
24557500000	0	0	-9.15977558453988	-148.584727278423	0	0	0	0	
24610000000	0	0	-9.10839819034544	71.70165170234	0	0	0	0	
24662500000	0	0	-8.248122977599	-62.8364165129589	0	0	0	0	
24715000000	0	0	-8.75491761976546	160.512462337513	0	0	0	0	
24767500000	0	0	-8.24908387733555	19.3269438672225	0	0	0	0	
24820000000	0	0	-8.17917865854534	-116.693343409155	0	0	0	0	
24872500000	0	0	-8.78552434784305	102.231271794996	0	0	0	0	
24925000000	0	0	-8.72211466823294	-34.2841175433717	0	0	0	0	
24977500000	0	0	-8.85708284216034	-170.994437529748	0	0	0	0	
25030000000	0	0	-8.95643525043927	54.458863205227	0	0	0	0	
25082500000	0	0	-9.67160700903966	-72.5216451775036	0	0	0	0	
25135000000	0	0	-9.1795275910033	152.268395600443	0	0	0	0	
25187500000	0	0	-8.89348723460088	17.007333488722	0	0	0	0	
25240000000	0	0	-9.117614520111	-120.946917759597	0	0	0	0	
25292500000	0	0	-8.74838415294693	100.220367619624	0	0	0	0	
25345000000	0	0	-8.63589321466693	-38.0505476670875	0	0	0	0	
25397500000	0	0	-8.63066486893035	-171.074951774122	0	0	0	0	
25450000000	0	0	-8.34974604174335	56.3226918027621	0	0	0	0	
25502500000	0	0	-8.47122009564629	-76.7033799257949	0	0	0	0	
25555000000	0	0	-8.48056000531684	147.867771439526	0	0	0	0	
25607500000	0	0	-8.74196756548669	12.9772640646275	0	0	0	0	
25660000000	0	0	-9.04574432523013	-123.539831189978	0	0	0	0	
25712500000	0	0	-9.48691284059411	98.6698536393263	0	0	0	0	
25765000000	0	0	-9.5939140805627	-38.2807131720387	0	0	0	0	
25817500000	0	0	-9.52530498500661	-171.523552478859	0	0	0	0	
25870000000	0	0	-9.88075876514086	59.9895517209219	0	0	0	0	
25922500000	0	0	-9.38372368241918	-77.1316061370702	0	0	0	0	
25975000000	0	0	-9.25733460300343	149.613668434481	0	0	0	0	
26027500000	0	0	-8.94422425053364	12.2277692295606	0	0	0	0	
26080000000	0	0	-8.59393436913522	-123.180109286829	0	0	0	0	
26132500000	0	0	-8.58014046428979	100.922148499706	0	0	0	0	
26185000000	0	0	-8.80803806394028	-33.9845711928002	0	0	0	0	
26237500000	0	0	-8.9605580141882	-170.937353480966	0	0	0	0	
26290000000	0	0	-9.21644559520893	52.3891802527193	0	0	0	0	
26342500000	0	0	-9.43850987305392	-79.7971399959324	0	0	0	0	
26395000000	0	0	-10.0689041248968	146.404512869785	0	0	0	0	
26447500000	0	0	-10.0568420835363	7.402026044869	0	0	0	0	
26500000000	0	0	-10.6772459760349	-115.816877077198	0	0	0	0	
