!Agilent N9918A: A.07.57
!Date: Wednesday, 05 August 2020 17:53:58
!Timezone: (GMT-08:00) Pacific Time (US & Canada)
!Model: N9918A
!Serial: MY53103598
!GPS Latitude: 
!GPS Longitude: 
!GPS TimeStamp: 0001-01-01 00:00:00Z
!GPS Seconds Since Last Read: 0
!CHECKSUM:1882027901
!Correction: S11()S21(Rdy)S12()S22()
!S2P File: Measurements:S11,S21,S12,S22:
# Hz S DB R 50
18000000000	0	0	29.3638040957759	-146.19931737404	0	0	0	0	
18010000000	0	0	29.4216186297109	-177.675524461678	0	0	0	0	
18020000000	0	0	29.2576783151659	151.070459382269	0	0	0	0	
18030000000	0	0	29.2150195931483	120.853945744867	0	0	0	0	
18040000000	0	0	28.9578572174685	90.7325852746916	0	0	0	0	
18050000000	0	0	28.9882109639064	61.3089994138228	0	0	0	0	
18060000000	0	0	28.9467375518672	32.1078791613003	0	0	0	0	
18070000000	0	0	29.1826449157048	2.28270086273535	0	0	0	0	
18080000000	0	0	29.2831229011194	-29.0679084180417	0	0	0	0	
18090000000	0	0	29.4534139054446	-58.89659771639	0	0	0	0	
18100000000	0	0	29.348273087838	-90.2967421213279	0	0	0	0	
18110000000	0	0	29.415201325195	-122.579620997283	0	0	0	0	
18120000000	0	0	29.2564389787666	-152.151255610906	0	0	0	0	
18130000000	0	0	29.1269828176474	177.094755599439	0	0	0	0	
18140000000	0	0	29.1461813744322	148.092428654055	0	0	0	0	
18150000000	0	0	29.1770456610535	118.647985147	0	0	0	0	
18160000000	0	0	29.2474777933031	88.0469540603714	0	0	0	0	
18170000000	0	0	29.4573293653583	57.9251970594901	0	0	0	0	
18180000000	0	0	29.6618483903149	27.1804196452774	0	0	0	0	
18190000000	0	0	29.6709323782159	-5.03947792099438	0	0	0	0	
18200000000	0	0	29.5611919675373	-36.159228180058	0	0	0	0	
18210000000	0	0	29.4620518764678	-67.4174171315318	0	0	0	0	
18220000000	0	0	29.1475538952654	-98.5508353612042	0	0	0	0	
18230000000	0	0	29.0096973277871	-127.406329818473	0	0	0	0	
18240000000	0	0	28.9052603448705	-156.602801808067	0	0	0	0	
18250000000	0	0	29.0098406075368	174.59433519114	0	0	0	0	
18260000000	0	0	29.0110705453272	145.208074890977	0	0	0	0	
18270000000	0	0	29.4879196882309	115.11854483551	0	0	0	0	
18280000000	0	0	29.7594362380796	83.644064305474	0	0	0	0	
18290000000	0	0	29.9220438634431	51.0247292889399	0	0	0	0	
18300000000	0	0	29.7861064203001	18.2804122575984	0	0	0	0	
18310000000	0	0	29.5902634700535	-13.6169567406447	0	0	0	0	
18320000000	0	0	29.2394565427074	-44.4739069408249	0	0	0	0	
18330000000	0	0	28.785879018317	-74.3427288168357	0	0	0	0	
18340000000	0	0	28.7757109748013	-102.943161744029	0	0	0	0	
18350000000	0	0	28.6036510199995	-130.268563203325	0	0	0	0	
18360000000	0	0	28.9339732137144	-158.650620774377	0	0	0	0	
18370000000	0	0	29.1180409209776	171.852343571391	0	0	0	0	
18380000000	0	0	29.4199089514212	140.358758346196	0	0	0	0	
18390000000	0	0	29.8464779492513	108.076194887469	0	0	0	0	
18400000000	0	0	29.7590286634628	75.0737488328741	0	0	0	0	
18410000000	0	0	29.7082898200161	42.8251311399942	0	0	0	0	
18420000000	0	0	29.4138206028425	10.3174544568118	0	0	0	0	
18430000000	0	0	28.9560200252508	-19.741681956437	0	0	0	0	
18440000000	0	0	28.580480142017	-49.6139203529651	0	0	0	0	
18450000000	0	0	28.4206326023118	-78.5623191866077	0	0	0	0	
18460000000	0	0	28.5283789427327	-105.372292714858	0	0	0	0	
18470000000	0	0	28.7608637891478	-133.730982269404	0	0	0	0	
18480000000	0	0	29.1673413643506	-163.137999934695	0	0	0	0	
18490000000	0	0	29.4993937544124	165.486149417811	0	0	0	0	
18500000000	0	0	29.6945907717128	133.052063332619	0	0	0	0	
18510000000	0	0	29.6138756605482	100.64450914148	0	0	0	0	
18520000000	0	0	29.5086116703617	67.3326887114489	0	0	0	0	
18530000000	0	0	29.0857214468668	36.2531251798389	0	0	0	0	
18540000000	0	0	28.6869448093322	5.82624340531929	0	0	0	0	
18550000000	0	0	28.3815308319249	-21.6557607205127	0	0	0	0	
18560000000	0	0	28.4162591221193	-49.248451732495	0	0	0	0	
18570000000	0	0	28.4139242533349	-78.6012468422333	0	0	0	0	
18580000000	0	0	28.6059917544532	-106.951076231395	0	0	0	0	
18590000000	0	0	28.9401586551578	-135.376784095118	0	0	0	0	
18600000000	0	0	29.3456435771032	-168.219919272679	0	0	0	0	
18610000000	0	0	29.6378484618171	160.250925869875	0	0	0	0	
18620000000	0	0	29.4620961386458	126.177550788056	0	0	0	0	
18630000000	0	0	29.2862537127245	94.916573825282	0	0	0	0	
18640000000	0	0	29.0271327977041	63.5906297204566	0	0	0	0	
18650000000	0	0	28.5968723080848	33.9880422538262	0	0	0	0	
18660000000	0	0	28.3281958654235	4.52408123241257	0	0	0	0	
18670000000	0	0	28.4230977140258	-22.0960081417497	0	0	0	0	
18680000000	0	0	28.3923137681519	-50.3202890250995	0	0	0	0	
18690000000	0	0	28.6672057342286	-79.9107245722657	0	0	0	0	
18700000000	0	0	29.1458855212972	-109.245294386356	0	0	0	0	
18710000000	0	0	29.6190992774372	-141.458512967523	0	0	0	0	
18720000000	0	0	29.505757223284	-174.545573115847	0	0	0	0	
18730000000	0	0	29.3333236315271	152.712255829189	0	0	0	0	
18740000000	0	0	29.1216620164825	121.114901258811	0	0	0	0	
18750000000	0	0	28.9009294145396	91.3365955012227	0	0	0	0	
18760000000	0	0	28.6515074052764	62.3758645700586	0	0	0	0	
18770000000	0	0	28.5514678405468	33.0987513054553	0	0	0	0	
18780000000	0	0	28.6205470123367	4.54471218592894	0	0	0	0	
18790000000	0	0	28.6781530743005	-24.1773336206658	0	0	0	0	
18800000000	0	0	29.1430161971082	-53.4130283012491	0	0	0	0	
18810000000	0	0	29.3805057842358	-86.3911619451676	0	0	0	0	
18820000000	0	0	29.541285210228	-116.846776810208	0	0	0	0	
18830000000	0	0	29.5047101437681	-150.488716507294	0	0	0	0	
18840000000	0	0	29.3973694201229	178.414174164659	0	0	0	0	
18850000000	0	0	28.9561996758001	146.894574949096	0	0	0	0	
18860000000	0	0	28.804759889393	117.995455342037	0	0	0	0	
18870000000	0	0	28.7045860496195	88.5943941058221	0	0	0	0	
18880000000	0	0	28.88808928718	59.7875697771104	0	0	0	0	
18890000000	0	0	28.9418926454714	29.1832059832813	0	0	0	0	
18900000000	0	0	29.181746258402	0.108007156602367	0	0	0	0	
18910000000	0	0	29.3156556908095	-31.4029100870654	0	0	0	0	
18920000000	0	0	29.3645394607101	-63.7778424832232	0	0	0	0	
18930000000	0	0	29.3070384969274	-95.4685791246018	0	0	0	0	
18940000000	0	0	29.1180128392622	-127.307794956208	0	0	0	0	
18950000000	0	0	29.0896512655206	-156.880921755615	0	0	0	0	
18960000000	0	0	28.8305649931205	173.302579084415	0	0	0	0	
18970000000	0	0	28.7649017035273	143.971551633225	0	0	0	0	
18980000000	0	0	29.0061137315111	114.093238720476	0	0	0	0	
18990000000	0	0	29.1697612149969	84.6724916990992	0	0	0	0	
19000000000	0	0	29.2240234882509	54.0119839458191	0	0	0	0	
19010000000	0	0	29.4386165097916	22.5238899186274	0	0	0	0	
19020000000	0	0	29.5230167510268	-10.0930910562578	0	0	0	0	
19030000000	0	0	29.4461571959327	-42.1380843872142	0	0	0	0	
19040000000	0	0	29.1889175871128	-73.5206414321841	0	0	0	0	
19050000000	0	0	28.9245052002462	-103.532059190532	0	0	0	0	
19060000000	0	0	28.7408890987739	-132.728149231001	0	0	0	0	
19070000000	0	0	28.616280064762	-161.923123763447	0	0	0	0	
19080000000	0	0	28.7752549047294	169.252888332341	0	0	0	0	
19090000000	0	0	28.9359432593783	138.690777789994	0	0	0	0	
19100000000	0	0	29.2438826588202	108.198734749685	0	0	0	0	
19110000000	0	0	29.4780748829491	77.4756088999465	0	0	0	0	
19120000000	0	0	29.5812692875139	44.2953630889101	0	0	0	0	
19130000000	0	0	29.2898398518793	11.7687267954106	0	0	0	0	
19140000000	0	0	29.1228294949315	-20.6415082550074	0	0	0	0	
19150000000	0	0	28.8775357465742	-49.1343387596038	0	0	0	0	
19160000000	0	0	28.4916385949871	-78.5433879124114	0	0	0	0	
19170000000	0	0	28.3003754615656	-106.729832222049	0	0	0	0	
19180000000	0	0	28.4696340338427	-135.230297044389	0	0	0	0	
19190000000	0	0	28.4962996266334	-163.882791421386	0	0	0	0	
19200000000	0	0	28.8528409174361	167.119801734696	0	0	0	0	
19210000000	0	0	29.2630322569095	137.336759371972	0	0	0	0	
19220000000	0	0	29.4668875705235	104.135235652154	0	0	0	0	
19230000000	0	0	29.5052005699801	71.4026539568331	0	0	0	0	
19240000000	0	0	29.3179707169079	39.7822101424524	0	0	0	0	
19250000000	0	0	28.9392669421378	8.0829933175159	0	0	0	0	
19260000000	0	0	28.6126333154571	-21.2903706403063	0	0	0	0	
19270000000	0	0	28.3053240231572	-50.2550263772771	0	0	0	0	
19280000000	0	0	28.1356211014118	-78.1147177932875	0	0	0	0	
19290000000	0	0	28.1967963605334	-106.449835149566	0	0	0	0	
19300000000	0	0	28.5132025295071	-135.338796455012	0	0	0	0	
19310000000	0	0	28.9797610129558	-163.860073079674	0	0	0	0	
19320000000	0	0	29.2682870643449	164.154812966445	0	0	0	0	
19330000000	0	0	29.3531638163108	131.555365573904	0	0	0	0	
19340000000	0	0	29.4558285012627	98.3754463996143	0	0	0	0	
19350000000	0	0	29.2196417346109	66.7060745088431	0	0	0	0	
19360000000	0	0	28.7930124511059	36.2926422236995	0	0	0	0	
19370000000	0	0	28.4744765980219	6.5855102887744	0	0	0	0	
19380000000	0	0	28.1516522164957	-22.0568287308711	0	0	0	0	
19390000000	0	0	28.1579745017277	-49.7705232408911	0	0	0	0	
19400000000	0	0	28.2380090887778	-77.9331313038799	0	0	0	0	
19410000000	0	0	28.4749775284784	-106.859654027022	0	0	0	0	
19420000000	0	0	28.9001312370346	-136.799492412132	0	0	0	0	
19430000000	0	0	29.2052921089197	-167.590455200801	0	0	0	0	
19440000000	0	0	29.3887035417672	159.17844301099	0	0	0	0	
19450000000	0	0	29.4297065167348	127.195964302616	0	0	0	0	
19460000000	0	0	29.1408392193542	94.6987130629309	0	0	0	0	
19470000000	0	0	28.8138798600641	63.9916453004749	0	0	0	0	
19480000000	0	0	28.4199808931318	34.8045221385349	0	0	0	0	
19490000000	0	0	28.4247762178922	5.90827312438917	0	0	0	0	
19500000000	0	0	28.2944785101417	-21.9062954500589	0	0	0	0	
19510000000	0	0	28.4641332747416	-50.5728436220542	0	0	0	0	
19520000000	0	0	28.6938926655534	-79.9504934510182	0	0	0	0	
19530000000	0	0	28.8981366551394	-110.806984287087	0	0	0	0	
19540000000	0	0	29.0297677057223	-141.715333806568	0	0	0	0	
19550000000	0	0	29.1392525277637	-173.319354826568	0	0	0	0	
19560000000	0	0	29.2073194611463	154.741380306683	0	0	0	0	
19570000000	0	0	28.868033619019	124.039001902576	0	0	0	0	
19580000000	0	0	28.7666213783418	94.0520774229719	0	0	0	0	
19590000000	0	0	28.6078388894105	64.3503685808289	0	0	0	0	
19600000000	0	0	28.5392964652845	35.3446213099262	0	0	0	0	
19610000000	0	0	28.6485367925875	6.64947581698518	0	0	0	0	
19620000000	0	0	28.7203469204134	-21.7612668801729	0	0	0	0	
19630000000	0	0	28.6872458220732	-53.5071673230068	0	0	0	0	
19640000000	0	0	28.9041253936233	-84.0865098199382	0	0	0	0	
19650000000	0	0	28.960173541861	-115.454658790917	0	0	0	0	
19660000000	0	0	28.9686618853633	-146.639049456573	0	0	0	0	
19670000000	0	0	28.8678601820276	-176.949988110774	0	0	0	0	
19680000000	0	0	28.6904588150969	151.510270562997	0	0	0	0	
19690000000	0	0	28.6744322941135	121.694141787395	0	0	0	0	
19700000000	0	0	28.6795595571567	91.8342769612772	0	0	0	0	
19710000000	0	0	28.8077922634855	62.0597903337142	0	0	0	0	
19720000000	0	0	28.8293228060492	32.4821808103361	0	0	0	0	
19730000000	0	0	28.757516557015	1.49037815684498	0	0	0	0	
19740000000	0	0	28.8475201364255	-29.7434428108637	0	0	0	0	
19750000000	0	0	28.84259079678	-61.0750241716092	0	0	0	0	
19760000000	0	0	28.7226076188186	-91.8075690199009	0	0	0	0	
19770000000	0	0	28.5220816365135	-121.668008243312	0	0	0	0	
19780000000	0	0	28.3934146339188	-152.335209710036	0	0	0	0	
19790000000	0	0	28.4317257709505	178.339424399733	0	0	0	0	
19800000000	0	0	28.5470315839217	149.306212718809	0	0	0	0	
19810000000	0	0	28.6307710397475	119.715118913502	0	0	0	0	
19820000000	0	0	28.7164120444263	88.5376544287328	0	0	0	0	
19830000000	0	0	28.8648657191377	57.2341511962676	0	0	0	0	
19840000000	0	0	28.9416736137316	25.6672559898206	0	0	0	0	
19850000000	0	0	28.8844738348751	-6.65474364375028	0	0	0	0	
19860000000	0	0	28.618010468202	-37.3799504628456	0	0	0	0	
19870000000	0	0	28.4139696261657	-67.8225597466121	0	0	0	0	
19880000000	0	0	28.1921460284074	-97.2743420335306	0	0	0	0	
19890000000	0	0	28.1318975769294	-126.120854572478	0	0	0	0	
19900000000	0	0	28.0954336360144	-155.369963471086	0	0	0	0	
19910000000	0	0	28.3644079124286	176.073650367995	0	0	0	0	
19920000000	0	0	28.614296862624	146.307017636816	0	0	0	0	
19930000000	0	0	28.8033589759486	114.73400392992	0	0	0	0	
19940000000	0	0	28.9985048570966	82.7544898352976	0	0	0	0	
19950000000	0	0	28.9563576558765	49.6364431452677	0	0	0	0	
19960000000	0	0	28.8147508699697	18.4216697322754	0	0	0	0	
19970000000	0	0	28.4397354698315	-12.7143172735588	0	0	0	0	
19980000000	0	0	28.1455538000928	-42.6505849507893	0	0	0	0	
19990000000	0	0	27.9351576295711	-71.7812272811474	0	0	0	0	
20000000000	0	0	27.8292617759182	-99.7531639492936	0	0	0	0	
