!Agilent N9918A: A.07.57
!Date: Tuesday, 28 July 2020 14:43:18
!Timezone: (GMT-08:00) Pacific Time (US & Canada)
!Model: N9918A
!Serial: MY53103598
!GPS Latitude: 
!GPS Longitude: 
!GPS TimeStamp: 0001-01-01 00:00:00Z
!GPS Seconds Since Last Read: 0
!CHECKSUM:0012603109
!Correction: S11()S21(Rdy)S12()S22()
!S2P File: Measurements:S11,S21,S12,S22:
# Hz S DB R 50
18000000000	0	0	19.2450499459644	-101.766658781782	0	0	0	0	
18010000000	0	0	19.287748285526	-132.682438475863	0	0	0	0	
18020000000	0	0	19.542759862487	-164.190034817625	0	0	0	0	
18030000000	0	0	19.4318631154201	164.230479784413	0	0	0	0	
18040000000	0	0	19.4582289399499	133.439206859332	0	0	0	0	
18050000000	0	0	19.3454733231151	101.407207724753	0	0	0	0	
18060000000	0	0	19.3426377083482	70.1344995351479	0	0	0	0	
18070000000	0	0	19.4820053648957	38.1792190803281	0	0	0	0	
18080000000	0	0	19.4629482425368	6.93564182420932	0	0	0	0	
18090000000	0	0	19.4392586097479	-24.9215520258779	0	0	0	0	
18100000000	0	0	19.3816776001431	-56.0873644431188	0	0	0	0	
18110000000	0	0	19.339383786232	-88.0435206980165	0	0	0	0	
18120000000	0	0	19.3013799336346	-119.136576733991	0	0	0	0	
18130000000	0	0	19.334218535547	-150.588169511474	0	0	0	0	
18140000000	0	0	19.3592169179195	178.913727000849	0	0	0	0	
18150000000	0	0	19.5787422415153	147.488341201603	0	0	0	0	
18160000000	0	0	19.5754391914681	116.544209388621	0	0	0	0	
18170000000	0	0	19.7395878988719	84.8920790621662	0	0	0	0	
18180000000	0	0	19.6695257841216	52.6734566346626	0	0	0	0	
18190000000	0	0	19.7746310134256	20.5224766470357	0	0	0	0	
18200000000	0	0	19.6370826550391	-11.5019197858544	0	0	0	0	
18210000000	0	0	19.5696533602425	-43.0593602892801	0	0	0	0	
18220000000	0	0	19.4485544805257	-74.7946461533586	0	0	0	0	
18230000000	0	0	19.3083801870386	-105.675224823501	0	0	0	0	
18240000000	0	0	19.4003916644341	-135.702889636001	0	0	0	0	
18250000000	0	0	19.3094674365555	-166.345111355822	0	0	0	0	
18260000000	0	0	19.6373643127486	163.202699887029	0	0	0	0	
18270000000	0	0	19.6980931787457	131.389043227478	0	0	0	0	
18280000000	0	0	19.861116256157	99.3612038008152	0	0	0	0	
18290000000	0	0	19.9892285902108	65.7404859715005	0	0	0	0	
18300000000	0	0	20.0339215716839	32.541052608465	0	0	0	0	
18310000000	0	0	19.9011281526522	0.191958784906851	0	0	0	0	
18320000000	0	0	19.5694496161712	-31.7256538466317	0	0	0	0	
18330000000	0	0	19.4382517845342	-62.3497881760775	0	0	0	0	
18340000000	0	0	19.2442136723428	-92.5603171033191	0	0	0	0	
18350000000	0	0	19.1958230753609	-122.994990183429	0	0	0	0	
18360000000	0	0	19.3841839247088	-152.991010869842	0	0	0	0	
18370000000	0	0	19.5339742019438	176.100829171145	0	0	0	0	
18380000000	0	0	19.73721318524	144.372082952564	0	0	0	0	
18390000000	0	0	20.0432866180329	111.986436922475	0	0	0	0	
18400000000	0	0	20.0716782766792	77.9677572630938	0	0	0	0	
18410000000	0	0	20.0111244011846	45.6803316603868	0	0	0	0	
18420000000	0	0	19.7185140063071	12.418769063909	0	0	0	0	
18430000000	0	0	19.678958488873	-19.1622358809514	0	0	0	0	
18440000000	0	0	19.3301742547066	-49.2305170651249	0	0	0	0	
18450000000	0	0	19.2174823370402	-79.4535838625942	0	0	0	0	
18460000000	0	0	19.1340611549668	-109.305875373496	0	0	0	0	
18470000000	0	0	19.2758491428552	-138.986600148708	0	0	0	0	
18480000000	0	0	19.4580358271167	-170.887894286534	0	0	0	0	
18490000000	0	0	19.9695182739259	157.752926121445	0	0	0	0	
18500000000	0	0	20.0633697494822	125.046290907279	0	0	0	0	
18510000000	0	0	19.9429985377659	91.3993972411358	0	0	0	0	
18520000000	0	0	20.1637249135616	57.9439808468907	0	0	0	0	
18530000000	0	0	19.8481536717981	26.9659893789263	0	0	0	0	
18540000000	0	0	19.4872737557379	-5.5057309395497	0	0	0	0	
18550000000	0	0	19.2849490876278	-35.7592225274515	0	0	0	0	
18560000000	0	0	19.2044843557512	-65.0584217364682	0	0	0	0	
18570000000	0	0	19.0699653618132	-93.8527593701057	0	0	0	0	
18580000000	0	0	19.4324953134564	-124.009187134871	0	0	0	0	
18590000000	0	0	19.6775261346955	-154.590412718132	0	0	0	0	
18600000000	0	0	19.8891029744541	172.537699350534	0	0	0	0	
18610000000	0	0	20.0653738407137	140.616430434117	0	0	0	0	
18620000000	0	0	19.9424279478578	106.331232644554	0	0	0	0	
18630000000	0	0	19.9229695916416	73.2673550267605	0	0	0	0	
18640000000	0	0	19.7017607530351	41.5744178293132	0	0	0	0	
18650000000	0	0	19.5487174272859	10.6561167269403	0	0	0	0	
18660000000	0	0	19.2097045320222	-20.3106190674016	0	0	0	0	
18670000000	0	0	19.1720932106491	-49.8384538308043	0	0	0	0	
18680000000	0	0	19.3504413751204	-79.2738285843941	0	0	0	0	
18690000000	0	0	19.489414141669	-110.326829223364	0	0	0	0	
18700000000	0	0	19.6555406409184	-141.313316134341	0	0	0	0	
18710000000	0	0	19.9263406525456	-173.490382926147	0	0	0	0	
18720000000	0	0	19.9186051824396	154.174189124452	0	0	0	0	
18730000000	0	0	19.9860966033114	120.2842957215	0	0	0	0	
18740000000	0	0	19.9650433541336	87.9335743581177	0	0	0	0	
18750000000	0	0	19.5198073205611	56.1475135236421	0	0	0	0	
18760000000	0	0	19.4948664903943	24.3726245574107	0	0	0	0	
18770000000	0	0	19.2744668991167	-5.54386096614164	0	0	0	0	
18780000000	0	0	19.2411874883971	-35.3596172593926	0	0	0	0	
18790000000	0	0	19.3357575018201	-65.0317237859332	0	0	0	0	
18800000000	0	0	19.6411555862566	-96.777641673236	0	0	0	0	
18810000000	0	0	19.7990213744668	-128.129115942132	0	0	0	0	
18820000000	0	0	19.9207810500727	-159.80937466508	0	0	0	0	
18830000000	0	0	20.0436205271629	167.141330677847	0	0	0	0	
18840000000	0	0	19.8627277620854	134.71312380984	0	0	0	0	
18850000000	0	0	19.8964782889646	102.834125167212	0	0	0	0	
18860000000	0	0	19.7981692254405	70.6102346615246	0	0	0	0	
18870000000	0	0	19.6468577188129	39.0617539488782	0	0	0	0	
18880000000	0	0	19.4965102315703	9.62396920761774	0	0	0	0	
18890000000	0	0	19.5734670654997	-21.2608880080568	0	0	0	0	
18900000000	0	0	19.6827757655797	-52.2651586391849	0	0	0	0	
18910000000	0	0	19.6566378100252	-83.4844317816595	0	0	0	0	
18920000000	0	0	19.9119431005297	-115.365235384011	0	0	0	0	
18930000000	0	0	20.1362003119677	-147.516583546809	0	0	0	0	
18940000000	0	0	19.8783423248333	-179.545935334348	0	0	0	0	
18950000000	0	0	20.032066875023	147.959409947349	0	0	0	0	
18960000000	0	0	19.7383837657177	116.89380615363	0	0	0	0	
18970000000	0	0	19.7074626046441	85.1945922716442	0	0	0	0	
18980000000	0	0	19.6163174662043	53.8139128958593	0	0	0	0	
18990000000	0	0	19.6102926308535	22.9268951528875	0	0	0	0	
19000000000	0	0	19.5836299221002	-8.35705626732802	0	0	0	0	
19010000000	0	0	19.7383955757891	-39.9702243677588	0	0	0	0	
19020000000	0	0	19.8483230772746	-71.8193754256559	0	0	0	0	
19030000000	0	0	19.7951576884554	-102.768449244414	0	0	0	0	
19040000000	0	0	19.7514426342594	-135.4551193861	0	0	0	0	
19050000000	0	0	19.7108512978529	-166.304955190996	0	0	0	0	
19060000000	0	0	19.6929788738071	161.735857316692	0	0	0	0	
19070000000	0	0	19.6724839957872	131.173583309052	0	0	0	0	
19080000000	0	0	19.6131207924442	99.9910939866469	0	0	0	0	
19090000000	0	0	19.5018969321401	69.3920281884474	0	0	0	0	
19100000000	0	0	19.4989198773833	38.0156552896194	0	0	0	0	
19110000000	0	0	19.7918691877302	6.45625209106666	0	0	0	0	
19120000000	0	0	19.7482676993502	-24.4353528783283	0	0	0	0	
19130000000	0	0	19.6946844582075	-57.106314339119	0	0	0	0	
19140000000	0	0	19.7627382091957	-89.4399188205587	0	0	0	0	
19150000000	0	0	19.5274537585355	-120.97965008791	0	0	0	0	
19160000000	0	0	19.3971152986761	-152.091287692121	0	0	0	0	
19170000000	0	0	19.3674416980908	177.215754591492	0	0	0	0	
19180000000	0	0	19.2584985437193	147.254997375472	0	0	0	0	
19190000000	0	0	19.3838714340513	116.260195306665	0	0	0	0	
19200000000	0	0	19.4090084938512	85.1163694343549	0	0	0	0	
19210000000	0	0	19.5280583610726	54.2706587381058	0	0	0	0	
19220000000	0	0	19.6068095531715	21.8328432040227	0	0	0	0	
19230000000	0	0	19.5228386592356	-8.88254698125441	0	0	0	0	
19240000000	0	0	19.6213315961869	-42.6666189751963	0	0	0	0	
19250000000	0	0	19.5133941174955	-72.643851783614	0	0	0	0	
19260000000	0	0	19.272305580453	-105.516550746837	0	0	0	0	
19270000000	0	0	19.074322092665	-135.976982871928	0	0	0	0	
19280000000	0	0	19.0607250040129	-166.888790168551	0	0	0	0	
19290000000	0	0	18.9201046364688	163.165836217828	0	0	0	0	
19300000000	0	0	19.1679978699024	133.09755065019	0	0	0	0	
19310000000	0	0	19.4128900760286	102.92613166167	0	0	0	0	
19320000000	0	0	19.4473370468832	71.500182882973	0	0	0	0	
19330000000	0	0	19.5804615615535	37.5559349459004	0	0	0	0	
19340000000	0	0	19.674097510745	5.55614486414563	0	0	0	0	
19350000000	0	0	19.3962650292545	-26.1887743889507	0	0	0	0	
19360000000	0	0	19.2569325130759	-58.0667513609786	0	0	0	0	
19370000000	0	0	19.0505759953448	-89.0249307275344	0	0	0	0	
19380000000	0	0	18.7838689805261	-119.387297000274	0	0	0	0	
19390000000	0	0	18.8001120334478	-149.817850848092	0	0	0	0	
19400000000	0	0	18.857187047202	-178.982624488322	0	0	0	0	
19410000000	0	0	19.0545486967916	150.22152346339	0	0	0	0	
19420000000	0	0	19.1543995562532	119.263421600847	0	0	0	0	
19430000000	0	0	19.4393315789537	87.6332481051441	0	0	0	0	
19440000000	0	0	19.4718047373058	54.6667934537726	0	0	0	0	
19450000000	0	0	19.5076575571497	22.878025537831	0	0	0	0	
19460000000	0	0	19.3373688838731	-10.1570258077318	0	0	0	0	
19470000000	0	0	19.1878096910098	-41.2600063467597	0	0	0	0	
19480000000	0	0	19.0549935646888	-71.5827990774667	0	0	0	0	
19490000000	0	0	19.1777896348124	-102.38645291779	0	0	0	0	
19500000000	0	0	18.8909429422624	-132.525135828605	0	0	0	0	
19510000000	0	0	19.0397402157586	-162.765275867901	0	0	0	0	
19520000000	0	0	19.0100018737944	166.54745318474	0	0	0	0	
19530000000	0	0	19.4203877236482	134.03182036164	0	0	0	0	
19540000000	0	0	19.5021649767559	102.556977063532	0	0	0	0	
19550000000	0	0	19.5816929476667	70.7681668632299	0	0	0	0	
19560000000	0	0	19.5090710943384	37.9600551576613	0	0	0	0	
19570000000	0	0	19.4114801348835	5.91507385613408	0	0	0	0	
19580000000	0	0	19.1442908180896	-25.5245465469721	0	0	0	0	
19590000000	0	0	19.1246403474753	-55.0557334792388	0	0	0	0	
19600000000	0	0	18.9857152226901	-86.6706679024181	0	0	0	0	
19610000000	0	0	19.0963650206384	-116.849954964948	0	0	0	0	
19620000000	0	0	19.1445598512918	-147.800854951054	0	0	0	0	
19630000000	0	0	19.3105667299331	179.960987888303	0	0	0	0	
19640000000	0	0	19.382694763756	148.675561164039	0	0	0	0	
19650000000	0	0	19.3831646404755	116.902796591547	0	0	0	0	
19660000000	0	0	19.4080398269026	84.7340505020032	0	0	0	0	
19670000000	0	0	19.4120876969246	52.3189705054325	0	0	0	0	
19680000000	0	0	19.2244226889576	20.8293305036264	0	0	0	0	
19690000000	0	0	19.0913368209094	-9.90404814055727	0	0	0	0	
19700000000	0	0	19.1086737976939	-40.9654493134657	0	0	0	0	
19710000000	0	0	19.0787944716202	-71.4553728270942	0	0	0	0	
19720000000	0	0	19.134246732354	-103.300708302425	0	0	0	0	
19730000000	0	0	19.2209522865943	-134.756359848761	0	0	0	0	
19740000000	0	0	19.3761601872424	-165.763852023889	0	0	0	0	
19750000000	0	0	19.3591023950904	161.650641221916	0	0	0	0	
19760000000	0	0	19.3867466189165	129.885658553172	0	0	0	0	
19770000000	0	0	19.2393509841462	98.0467503519566	0	0	0	0	
19780000000	0	0	19.1153324046327	66.8073570444804	0	0	0	0	
19790000000	0	0	19.0648458716381	36.0726051636582	0	0	0	0	
19800000000	0	0	19.110378305628	5.16205979545349	0	0	0	0	
19810000000	0	0	19.1914035624363	-26.4556415660281	0	0	0	0	
19820000000	0	0	19.2717202574359	-57.1760383390656	0	0	0	0	
19830000000	0	0	19.3812567620057	-88.1639763527701	0	0	0	0	
19840000000	0	0	19.4180483121634	-122.553235990336	0	0	0	0	
19850000000	0	0	19.4150780891239	-153.869654822522	0	0	0	0	
19860000000	0	0	19.2469035923197	174.217051996299	0	0	0	0	
19870000000	0	0	19.0967502207291	142.989238302112	0	0	0	0	
19880000000	0	0	18.8713064170984	111.403121502933	0	0	0	0	
19890000000	0	0	18.8521387119942	80.4339297090441	0	0	0	0	
19900000000	0	0	18.896487157687	51.0419693532554	0	0	0	0	
19910000000	0	0	18.879944225687	20.565414916011	0	0	0	0	
19920000000	0	0	19.0378905630817	-10.2235350670476	0	0	0	0	
19930000000	0	0	19.3435533815203	-41.8940818600043	0	0	0	0	
19940000000	0	0	19.3005594202202	-74.4246170404749	0	0	0	0	
19950000000	0	0	19.2905375282821	-106.855033488966	0	0	0	0	
19960000000	0	0	19.2682148604311	-139.185505982245	0	0	0	0	
19970000000	0	0	18.9792672276252	-171.025729946378	0	0	0	0	
19980000000	0	0	18.8506203516292	157.955748914898	0	0	0	0	
19990000000	0	0	18.7058091045142	128.033449844981	0	0	0	0	
20000000000	0	0	18.5524600338165	97.6275089134111	0	0	0	0	
