!Agilent N9918A: A.07.57
!Date: Tuesday, 28 July 2020 14:29:10
!Timezone: (GMT-08:00) Pacific Time (US & Canada)
!Model: N9918A
!Serial: MY53103598
!GPS Latitude: 
!GPS Longitude: 
!GPS TimeStamp: 0001-01-01 00:00:00Z
!GPS Seconds Since Last Read: 0
!CHECKSUM:1057999821
!Correction: S11()S21(Rdy)S12()S22()
!S2P File: Measurements:S11,S21,S12,S22:
# Hz S DB R 50
18000000000	0	0	14.3122072316048	119.913142810636	0	0	0	0	
18010000000	0	0	14.8140828635873	78.2437482919041	0	0	0	0	
18020000000	0	0	14.8752772831244	37.5261900277422	0	0	0	0	
18030000000	0	0	14.7009744211965	-4.49465998844991	0	0	0	0	
18040000000	0	0	14.7657516070217	-45.2877890618779	0	0	0	0	
18050000000	0	0	14.7581665870052	-86.1327296975072	0	0	0	0	
18060000000	0	0	14.8202352895232	-126.681670041952	0	0	0	0	
18070000000	0	0	14.7868716644233	-168.673685351933	0	0	0	0	
18080000000	0	0	14.6542165170935	148.206803121776	0	0	0	0	
18090000000	0	0	14.4301535738717	107.974609774358	0	0	0	0	
18100000000	0	0	14.0415291041123	68.1777731074953	0	0	0	0	
18110000000	0	0	13.8201826016747	29.1197730051671	0	0	0	0	
18120000000	0	0	13.7458598000365	-8.65595977400862	0	0	0	0	
18130000000	0	0	14.2582731864158	-46.8910739991265	0	0	0	0	
18140000000	0	0	14.5218356979994	-86.4509836446438	0	0	0	0	
18150000000	0	0	14.8713006582781	-128.465843695802	0	0	0	0	
18160000000	0	0	15.0296538311371	-170.90220850615	0	0	0	0	
18170000000	0	0	15.0337700985899	147.752397305057	0	0	0	0	
18180000000	0	0	14.83162125975	106.374832580412	0	0	0	0	
18190000000	0	0	14.8269471104821	65.8849054256103	0	0	0	0	
18200000000	0	0	14.7222929574304	23.5440395303263	0	0	0	0	
18210000000	0	0	14.633113470077	-16.8480175112049	0	0	0	0	
18220000000	0	0	14.6238741338028	-58.392312848245	0	0	0	0	
18230000000	0	0	14.4074092194004	-98.0103313976998	0	0	0	0	
18240000000	0	0	14.3007150057407	-137.73096399415	0	0	0	0	
18250000000	0	0	14.5362453563751	-176.866202368408	0	0	0	0	
18260000000	0	0	14.6507552941693	141.605548279173	0	0	0	0	
18270000000	0	0	14.8788381063999	100.07075069517	0	0	0	0	
18280000000	0	0	14.789280291561	58.0728980532471	0	0	0	0	
18290000000	0	0	14.5950912622393	15.7355994581575	0	0	0	0	
18300000000	0	0	14.2125484911679	-25.4183672924332	0	0	0	0	
18310000000	0	0	14.117073293754	-63.7569832336375	0	0	0	0	
18320000000	0	0	14.2704825338065	-103.605268070681	0	0	0	0	
18330000000	0	0	14.2881141996119	-143.379809503866	0	0	0	0	
18340000000	0	0	14.39899288143	176.761265987843	0	0	0	0	
18350000000	0	0	14.5584860444871	135.068785983767	0	0	0	0	
18360000000	0	0	14.4095772152486	94.1624521347041	0	0	0	0	
18370000000	0	0	14.5048393750217	54.2053103049414	0	0	0	0	
18380000000	0	0	14.7802914868669	13.9563736661279	0	0	0	0	
18390000000	0	0	14.9062310804494	-26.9632330146752	0	0	0	0	
18400000000	0	0	15.1087105909548	-69.3958156718043	0	0	0	0	
18410000000	0	0	14.8516728213954	-113.427126757817	0	0	0	0	
18420000000	0	0	14.4944875350714	-156.02741583643	0	0	0	0	
18430000000	0	0	14.3116665091028	165.224359236672	0	0	0	0	
18440000000	0	0	14.103288536573	126.203117352004	0	0	0	0	
18450000000	0	0	14.1834989060388	86.7080552999136	0	0	0	0	
18460000000	0	0	14.3789389529034	46.9005946896568	0	0	0	0	
18470000000	0	0	14.5579704599173	6.04378084467053	0	0	0	0	
18480000000	0	0	14.3420533833436	-36.6035604863727	0	0	0	0	
18490000000	0	0	14.3457731840902	-77.4011404068146	0	0	0	0	
18500000000	0	0	14.0941458589015	-117.81228702731	0	0	0	0	
18510000000	0	0	14.114252692681	-157.984864143636	0	0	0	0	
18520000000	0	0	14.2982645796714	164.046120619913	0	0	0	0	
18530000000	0	0	14.4991169392868	124.440431871049	0	0	0	0	
18540000000	0	0	14.5789242909323	82.2858044317789	0	0	0	0	
18550000000	0	0	14.6421244444835	39.6661093669963	0	0	0	0	
18560000000	0	0	14.3336134895858	-2.53152400520715	0	0	0	0	
18570000000	0	0	14.1543624874061	-41.0208587716104	0	0	0	0	
18580000000	0	0	14.3762494600334	-80.3874975702551	0	0	0	0	
18590000000	0	0	14.4631428554424	-120.34278100622	0	0	0	0	
18600000000	0	0	14.6762267864392	-161.886952101184	0	0	0	0	
18610000000	0	0	14.5065574810419	155.724896104809	0	0	0	0	
18620000000	0	0	14.3684947628239	113.045294481605	0	0	0	0	
18630000000	0	0	14.0253147293924	73.2491077113284	0	0	0	0	
18640000000	0	0	13.712656212699	34.7428840180197	0	0	0	0	
18650000000	0	0	13.9224905014037	-3.96003501883368	0	0	0	0	
18660000000	0	0	14.3517501969878	-43.6487556219141	0	0	0	0	
18670000000	0	0	14.2841219900207	-84.8874228356311	0	0	0	0	
18680000000	0	0	14.2654653016444	-126.69198633301	0	0	0	0	
18690000000	0	0	14.1537559754272	-168.259668531952	0	0	0	0	
18700000000	0	0	13.9051649651929	151.89147989599	0	0	0	0	
18710000000	0	0	13.977234734299	112.794797066183	0	0	0	0	
18720000000	0	0	14.1236947791021	74.8003411803251	0	0	0	0	
18730000000	0	0	14.3125917221908	35.4784234406779	0	0	0	0	
18740000000	0	0	14.6324159544007	-7.3853608916693	0	0	0	0	
18750000000	0	0	14.7191216078473	-49.0012721133745	0	0	0	0	
18760000000	0	0	14.6928102874861	-92.7670362797335	0	0	0	0	
18770000000	0	0	14.4939986077781	-133.010767028198	0	0	0	0	
18780000000	0	0	14.3510596574583	-173.207498163059	0	0	0	0	
18790000000	0	0	14.5512317382828	146.584404485044	0	0	0	0	
18800000000	0	0	14.6194231230343	105.377197273622	0	0	0	0	
18810000000	0	0	14.5643354588623	63.0124266466271	0	0	0	0	
18820000000	0	0	14.3137870981865	21.4613354283903	0	0	0	0	
18830000000	0	0	14.0477423814404	-17.8461452135937	0	0	0	0	
18840000000	0	0	13.9958165532732	-56.0044668594887	0	0	0	0	
18850000000	0	0	14.0059100424421	-95.8950655275938	0	0	0	0	
18860000000	0	0	14.2841456349467	-135.614805529925	0	0	0	0	
18870000000	0	0	14.7455751393975	-175.974098471555	0	0	0	0	
18880000000	0	0	14.60003429083	141.55953466236	0	0	0	0	
18890000000	0	0	14.5898404845695	99.0236485788486	0	0	0	0	
18900000000	0	0	14.4589704505017	57.5258648006895	0	0	0	0	
18910000000	0	0	14.3435609086482	18.7412375580007	0	0	0	0	
18920000000	0	0	14.4057598180089	-21.4029748989174	0	0	0	0	
18930000000	0	0	14.4657856301455	-60.6720171904751	0	0	0	0	
18940000000	0	0	14.4830404668696	-102.105857777286	0	0	0	0	
18950000000	0	0	14.5291913407429	-143.909444622112	0	0	0	0	
18960000000	0	0	14.5780978582416	174.818488601543	0	0	0	0	
18970000000	0	0	14.6189856407361	133.672541380703	0	0	0	0	
18980000000	0	0	14.761706858967	92.1522319416625	0	0	0	0	
18990000000	0	0	14.6983726889621	51.8135098484508	0	0	0	0	
19000000000	0	0	14.6243738059765	10.5327851828776	0	0	0	0	
19010000000	0	0	14.3924235042291	-31.6832776413706	0	0	0	0	
19020000000	0	0	14.091487941737	-72.0548610812909	0	0	0	0	
19030000000	0	0	14.0138699243123	-112.008460881892	0	0	0	0	
19040000000	0	0	13.9793235972945	-150.683854060642	0	0	0	0	
19050000000	0	0	14.0718937573184	169.865364900081	0	0	0	0	
19060000000	0	0	14.2320936951888	129.814418431733	0	0	0	0	
19070000000	0	0	14.4811067264985	89.0225908012167	0	0	0	0	
19080000000	0	0	14.3098284918967	47.359452949802	0	0	0	0	
19090000000	0	0	14.388335186376	6.43736096857534	0	0	0	0	
19100000000	0	0	14.3518422372754	-34.6159897360836	0	0	0	0	
19110000000	0	0	14.4669759560545	-74.3544073545569	0	0	0	0	
19120000000	0	0	14.5277838829642	-115.430112291081	0	0	0	0	
19130000000	0	0	14.3859576997166	-157.734483989253	0	0	0	0	
19140000000	0	0	14.5407235513517	160.847363628539	0	0	0	0	
19150000000	0	0	14.2835094325859	120.846301859543	0	0	0	0	
19160000000	0	0	14.098804399148	80.9017996523949	0	0	0	0	
19170000000	0	0	13.9988115217623	41.8950159409203	0	0	0	0	
19180000000	0	0	14.2716506980683	1.35320344467487	0	0	0	0	
19190000000	0	0	14.4885042029727	-38.7391426731689	0	0	0	0	
19200000000	0	0	14.3898931492564	-82.0417336335144	0	0	0	0	
19210000000	0	0	14.0673473832642	-123.489305574462	0	0	0	0	
19220000000	0	0	13.8180973893047	-164.355747214087	0	0	0	0	
19230000000	0	0	13.6186170699467	157.728792345794	0	0	0	0	
19240000000	0	0	13.6582873804978	118.577506702889	0	0	0	0	
19250000000	0	0	13.7147372336	79.4191111744977	0	0	0	0	
19260000000	0	0	14.1985838714387	37.924755943899	0	0	0	0	
19270000000	0	0	14.1605857078947	-3.79172211335108	0	0	0	0	
19280000000	0	0	13.9984914662787	-44.6421787857161	0	0	0	0	
19290000000	0	0	13.8079464216582	-85.2041311523355	0	0	0	0	
19300000000	0	0	13.8821853565514	-124.399411783003	0	0	0	0	
19310000000	0	0	13.952751411547	-162.852772081736	0	0	0	0	
19320000000	0	0	14.0411941241146	156.267084713878	0	0	0	0	
19330000000	0	0	14.2180369373334	114.564560286814	0	0	0	0	
19340000000	0	0	14.307359568304	71.0461968601532	0	0	0	0	
19350000000	0	0	13.9939143825098	30.3492948707836	0	0	0	0	
19360000000	0	0	13.8188322768421	-9.54971279542229	0	0	0	0	
19370000000	0	0	13.6482064526705	-49.2747262791637	0	0	0	0	
19380000000	0	0	13.890856589559	-89.2108232514739	0	0	0	0	
19390000000	0	0	14.0461585273894	-128.269978945547	0	0	0	0	
19400000000	0	0	14.0693055184859	-170.107913094877	0	0	0	0	
19410000000	0	0	14.0777576769487	148.392225055666	0	0	0	0	
19420000000	0	0	13.7445082155089	107.222415868674	0	0	0	0	
19430000000	0	0	13.7087433715882	68.3359874789049	0	0	0	0	
19440000000	0	0	13.5244303167949	31.1051552623832	0	0	0	0	
19450000000	0	0	13.7644583376785	-10.9463102288289	0	0	0	0	
19460000000	0	0	13.9174856390122	-50.4033714678405	0	0	0	0	
19470000000	0	0	14.1734758346123	-91.5938789371107	0	0	0	0	
19480000000	0	0	14.1011698122873	-134.437408993528	0	0	0	0	
19490000000	0	0	14.0000854996987	-175.915469909864	0	0	0	0	
19500000000	0	0	13.7902381468799	144.722599703555	0	0	0	0	
19510000000	0	0	13.792714641191	106.272480196187	0	0	0	0	
19520000000	0	0	13.9037274464369	66.2406665630798	0	0	0	0	
19530000000	0	0	14.1962320856553	24.7778769717461	0	0	0	0	
19540000000	0	0	14.242164162892	-16.1431419335502	0	0	0	0	
19550000000	0	0	14.1004536271676	-57.0030444324641	0	0	0	0	
19560000000	0	0	13.995393768318	-98.8642708468472	0	0	0	0	
19570000000	0	0	14.024423779763	-140.039758002248	0	0	0	0	
19580000000	0	0	14.2002044064653	-179.323854868606	0	0	0	0	
19590000000	0	0	14.2009784958572	139.913477219548	0	0	0	0	
19600000000	0	0	14.0461140457913	97.8345717985982	0	0	0	0	
19610000000	0	0	13.9055178520471	56.1089504077876	0	0	0	0	
19620000000	0	0	13.9555237303721	15.84147542332	0	0	0	0	
19630000000	0	0	13.5542818475732	-23.5824827515245	0	0	0	0	
19640000000	0	0	13.5361444381264	-62.1849845219158	0	0	0	0	
19650000000	0	0	13.8055179811862	-103.540679952812	0	0	0	0	
19660000000	0	0	13.9513598378627	-142.938888490888	0	0	0	0	
19670000000	0	0	13.9661506967518	175.449315336613	0	0	0	0	
19680000000	0	0	14.0365521155467	133.908620025458	0	0	0	0	
19690000000	0	0	14.2374716886979	91.7789848310384	0	0	0	0	
19700000000	0	0	14.1805365705338	52.8855145522	0	0	0	0	
19710000000	0	0	14.1763613440785	10.8498746705423	0	0	0	0	
19720000000	0	0	13.9052995078487	-30.4078478057956	0	0	0	0	
19730000000	0	0	14.0989364027946	-70.9729682415943	0	0	0	0	
19740000000	0	0	13.9362814387206	-110.5147008731	0	0	0	0	
19750000000	0	0	13.8325216400469	-151.989035804658	0	0	0	0	
19760000000	0	0	13.8969672053566	166.909828451178	0	0	0	0	
19770000000	0	0	14.0569694464251	127.36885248308	0	0	0	0	
19780000000	0	0	14.0368376036774	86.3110775568866	0	0	0	0	
19790000000	0	0	13.8839153947432	44.9801422077705	0	0	0	0	
19800000000	0	0	13.8037007484017	2.47221012437561	0	0	0	0	
19810000000	0	0	13.6474807910958	-38.1260320713857	0	0	0	0	
19820000000	0	0	13.5541501263424	-77.6202322609595	0	0	0	0	
19830000000	0	0	13.4711869285081	-117.087352579836	0	0	0	0	
19840000000	0	0	13.6346350011402	-157.682610819693	0	0	0	0	
19850000000	0	0	13.8913242185598	161.856824849841	0	0	0	0	
19860000000	0	0	13.7312107696792	121.618240912141	0	0	0	0	
19870000000	0	0	13.6629337962377	79.7129540782152	0	0	0	0	
19880000000	0	0	13.5248501139727	39.6757243102534	0	0	0	0	
19890000000	0	0	13.7165440473236	0.558629316916836	0	0	0	0	
19900000000	0	0	13.6681918102601	-39.5992603123662	0	0	0	0	
19910000000	0	0	13.9090522350438	-81.826202040988	0	0	0	0	
19920000000	0	0	13.9741144840788	-123.049915109421	0	0	0	0	
19930000000	0	0	13.9922113754948	-164.803966085786	0	0	0	0	
19940000000	0	0	13.6877906871879	154.290204481003	0	0	0	0	
19950000000	0	0	13.572241022735	113.667232038367	0	0	0	0	
19960000000	0	0	13.5575766584028	74.2113260510936	0	0	0	0	
19970000000	0	0	13.6776357755347	34.4584738204388	0	0	0	0	
19980000000	0	0	13.6572647729449	-7.95448349139848	0	0	0	0	
19990000000	0	0	13.7518478464109	-48.8175962025544	0	0	0	0	
20000000000	0	0	13.5270160457765	-90.3164709768773	0	0	0	0	
