!Agilent N9918A: A.07.57
!Date: Monday, 27 July 2020 18:37:13
!Timezone: (GMT-08:00) Pacific Time (US & Canada)
!Model: N9918A
!Serial: MY53103598
!GPS Latitude: 
!GPS Longitude: 
!GPS TimeStamp: 0001-01-01 00:00:00Z
!GPS Seconds Since Last Read: 0
!CHECKSUM:0566258812
!Correction: S11()S21(Rdy)S12()S22()
!S2P File: Measurements:S11,S21,S12,S22:
# Hz S DB R 50
18000000000	0	0	33.1113223052788	103.578250001394	0	0	0	0	
18010000000	0	0	33.2998468051615	61.8683729670443	0	0	0	0	
18020000000	0	0	33.6288221848239	19.7384992791264	0	0	0	0	
18030000000	0	0	33.6075329233693	-22.1992337284683	0	0	0	0	
18040000000	0	0	33.5050970264773	-65.0600704151114	0	0	0	0	
18050000000	0	0	33.3780912074014	-107.254496979628	0	0	0	0	
18060000000	0	0	33.4172537539614	-149.178492410851	0	0	0	0	
18070000000	0	0	33.4650650564687	167.189539919896	0	0	0	0	
18080000000	0	0	33.2629108934734	123.341737426185	0	0	0	0	
18090000000	0	0	33.167816780274	80.6665869166691	0	0	0	0	
18100000000	0	0	33.0681963060044	39.6619072781467	0	0	0	0	
18110000000	0	0	32.5946556460978	0.269383081904246	0	0	0	0	
18120000000	0	0	32.6355728165358	-39.449913667972	0	0	0	0	
18130000000	0	0	32.9447051387854	-80.4181477433979	0	0	0	0	
18140000000	0	0	33.1084714321459	-121.149911714836	0	0	0	0	
18150000000	0	0	33.2892004459131	-163.253907752533	0	0	0	0	
18160000000	0	0	33.2977544957805	151.793667006946	0	0	0	0	
18170000000	0	0	33.3362218773189	109.204197238268	0	0	0	0	
18180000000	0	0	33.2806876894786	66.1933519361258	0	0	0	0	
18190000000	0	0	33.2880445135697	24.0154840378088	0	0	0	0	
18200000000	0	0	33.2038410509534	-19.3260581006355	0	0	0	0	
18210000000	0	0	33.1706685261233	-62.0868938548073	0	0	0	0	
18220000000	0	0	33.1498359179582	-102.835506362271	0	0	0	0	
18230000000	0	0	33.0169357416399	-145.06096309088	0	0	0	0	
18240000000	0	0	32.8587172187633	173.928295460241	0	0	0	0	
18250000000	0	0	33.0728172552605	132.347363783637	0	0	0	0	
18260000000	0	0	33.0570883759894	91.4959455170654	0	0	0	0	
18270000000	0	0	33.2421671653676	47.4322749597768	0	0	0	0	
18280000000	0	0	33.243649726073	3.5217688514831	0	0	0	0	
18290000000	0	0	33.1109778921413	-40.1652726052643	0	0	0	0	
18300000000	0	0	32.798950614953	-82.1964165554101	0	0	0	0	
18310000000	0	0	32.5580978484878	-122.837651435806	0	0	0	0	
18320000000	0	0	32.5692394046391	-164.590002858757	0	0	0	0	
18330000000	0	0	32.8535753191695	155.262725681363	0	0	0	0	
18340000000	0	0	32.8959361289114	113.661491245596	0	0	0	0	
18350000000	0	0	32.8520304376138	71.3362156193328	0	0	0	0	
18360000000	0	0	32.9870482895314	27.32201726956	0	0	0	0	
18370000000	0	0	33.1277137543047	-12.6504024550507	0	0	0	0	
18380000000	0	0	33.1596272917813	-55.7967305867618	0	0	0	0	
18390000000	0	0	33.2427229361741	-99.1150456343313	0	0	0	0	
18400000000	0	0	33.4306159861232	-143.01221397392	0	0	0	0	
18410000000	0	0	33.2098355831337	173.23173874523	0	0	0	0	
18420000000	0	0	32.8128478771149	130.610516014482	0	0	0	0	
18430000000	0	0	32.6702760783427	88.1988297670317	0	0	0	0	
18440000000	0	0	32.4505408482809	47.8430040907502	0	0	0	0	
18450000000	0	0	32.5048393875739	9.57486755290154	0	0	0	0	
18460000000	0	0	32.6936775094132	-33.1611198682929	0	0	0	0	
18470000000	0	0	32.8686437915471	-78.1363694499622	0	0	0	0	
18480000000	0	0	33.2414416041282	-120.566946608088	0	0	0	0	
18490000000	0	0	32.8357717938437	-163.106834506629	0	0	0	0	
18500000000	0	0	32.5577358498309	155.813199977785	0	0	0	0	
18510000000	0	0	32.5068408558101	114.450607598065	0	0	0	0	
18520000000	0	0	32.6650527557802	73.9039763261045	0	0	0	0	
18530000000	0	0	32.6610670951714	33.3207091381785	0	0	0	0	
18540000000	0	0	32.7792281000542	-11.9869992270421	0	0	0	0	
18550000000	0	0	32.803827463233	-54.1443136196894	0	0	0	0	
18560000000	0	0	32.8243613273585	-96.76266882537	0	0	0	0	
18570000000	0	0	32.736137182889	-139.324450585928	0	0	0	0	
18580000000	0	0	32.8390997610119	-179.8289951009	0	0	0	0	
18590000000	0	0	33.1294735027075	138.664590539526	0	0	0	0	
18600000000	0	0	33.2963454584939	95.5003807141523	0	0	0	0	
18610000000	0	0	33.2069411703871	52.0082621663961	0	0	0	0	
18620000000	0	0	32.9233563600841	6.14266292908206	0	0	0	0	
18630000000	0	0	32.5591794603363	-34.5162986145483	0	0	0	0	
18640000000	0	0	32.2750678356489	-73.3464917612482	0	0	0	0	
18650000000	0	0	32.1703708757299	-113.109315469824	0	0	0	0	
18660000000	0	0	32.6699557577177	-154.899380360237	0	0	0	0	
18670000000	0	0	32.9932962295647	161.983419172221	0	0	0	0	
18680000000	0	0	33.1830697910115	119.291516236568	0	0	0	0	
18690000000	0	0	33.0094920809872	75.4756261910825	0	0	0	0	
18700000000	0	0	32.9092699780542	32.0607591881022	0	0	0	0	
18710000000	0	0	32.9802980643764	-7.44373477975359	0	0	0	0	
18720000000	0	0	32.725228162481	-47.0709777553099	0	0	0	0	
18730000000	0	0	32.8795826926007	-89.4338174560618	0	0	0	0	
18740000000	0	0	33.0405865957503	-133.587518851237	0	0	0	0	
18750000000	0	0	33.3683136957909	-176.501211055922	0	0	0	0	
18760000000	0	0	33.3693254935807	139.663123109818	0	0	0	0	
18770000000	0	0	33.0574751157835	97.7614140743886	0	0	0	0	
18780000000	0	0	33.3154955307014	55.7588141050228	0	0	0	0	
18790000000	0	0	33.3990239477884	14.1278037784277	0	0	0	0	
18800000000	0	0	33.4842123501694	-28.731326552277	0	0	0	0	
18810000000	0	0	33.5275049544354	-73.4165895918218	0	0	0	0	
18820000000	0	0	33.3230595286448	-115.523482812194	0	0	0	0	
18830000000	0	0	33.1231324923999	-158.207120718437	0	0	0	0	
18840000000	0	0	32.7124404441638	160.098609235865	0	0	0	0	
18850000000	0	0	32.7009386780814	119.153687017828	0	0	0	0	
18860000000	0	0	33.1555900873554	78.0284451076172	0	0	0	0	
18870000000	0	0	33.2352552438351	36.5187283220617	0	0	0	0	
18880000000	0	0	33.1817456867903	-7.21754175042678	0	0	0	0	
18890000000	0	0	33.3986056309164	-51.2993668272011	0	0	0	0	
18900000000	0	0	33.3402753531629	-93.4802017645043	0	0	0	0	
18910000000	0	0	33.1588922115063	-134.012362486774	0	0	0	0	
18920000000	0	0	33.0951970112518	-176.55379829592	0	0	0	0	
18930000000	0	0	33.2942022377748	140.326044828157	0	0	0	0	
18940000000	0	0	33.4596373097361	98.0810272189663	0	0	0	0	
18950000000	0	0	33.3579383587207	53.803853711685	0	0	0	0	
18960000000	0	0	33.2190447219042	10.9277166788077	0	0	0	0	
18970000000	0	0	33.4053465973815	-31.9376231561492	0	0	0	0	
18980000000	0	0	33.3179373539264	-73.407695416396	0	0	0	0	
18990000000	0	0	33.2534828851205	-116.624684802329	0	0	0	0	
19000000000	0	0	33.279196381184	-159.769430349343	0	0	0	0	
19010000000	0	0	33.2562882082162	158.094603676692	0	0	0	0	
19020000000	0	0	32.9638531146725	116.754755468778	0	0	0	0	
19030000000	0	0	32.7977286761742	74.2362088036153	0	0	0	0	
19040000000	0	0	32.8613521586719	32.1472498261769	0	0	0	0	
19050000000	0	0	32.9715162641503	-7.8207313405289	0	0	0	0	
19060000000	0	0	32.919603224854	-50.9868874383952	0	0	0	0	
19070000000	0	0	33.1091799200647	-95.2437283098153	0	0	0	0	
19080000000	0	0	33.1882427277602	-137.751108628955	0	0	0	0	
19090000000	0	0	33.0931266216575	-179.268202831644	0	0	0	0	
19100000000	0	0	32.7532542405088	138.631799643396	0	0	0	0	
19110000000	0	0	32.728227395851	96.6194172487669	0	0	0	0	
19120000000	0	0	32.9056534883969	56.2013303872916	0	0	0	0	
19130000000	0	0	33.0589785883987	13.0814375573026	0	0	0	0	
19140000000	0	0	32.9069636577258	-30.3801148824694	0	0	0	0	
19150000000	0	0	32.9735239657551	-73.5785028381199	0	0	0	0	
19160000000	0	0	32.9981735662595	-115.00613641834	0	0	0	0	
19170000000	0	0	32.8571762195989	-156.282063791358	0	0	0	0	
19180000000	0	0	32.8698199392104	161.090344760695	0	0	0	0	
19190000000	0	0	32.9128039434467	118.135686408761	0	0	0	0	
19200000000	0	0	33.0373199548191	74.3412597478849	0	0	0	0	
19210000000	0	0	32.6847338719076	31.2884098932061	0	0	0	0	
19220000000	0	0	32.3572227582501	-9.65659373745249	0	0	0	0	
19230000000	0	0	32.2501488601886	-50.6270666539877	0	0	0	0	
19240000000	0	0	32.376935076617	-89.307470656809	0	0	0	0	
19250000000	0	0	32.365005308526	-128.952104947507	0	0	0	0	
19260000000	0	0	32.6497307414088	-173.200099644137	0	0	0	0	
19270000000	0	0	32.9833380371823	142.660739836674	0	0	0	0	
19280000000	0	0	32.9507017380972	100.100687905096	0	0	0	0	
19290000000	0	0	32.4755393027008	58.0447132789521	0	0	0	0	
19300000000	0	0	32.3441119841365	16.0035606306214	0	0	0	0	
19310000000	0	0	32.6564535752201	-24.1884224350705	0	0	0	0	
19320000000	0	0	32.712461035625	-65.0600773675344	0	0	0	0	
19330000000	0	0	32.6755038416258	-107.93355649515	0	0	0	0	
19340000000	0	0	32.795080116348	-152.16514378445	0	0	0	0	
19350000000	0	0	32.8658384704104	164.642010193115	0	0	0	0	
19360000000	0	0	32.670996735549	123.931676483047	0	0	0	0	
19370000000	0	0	32.565287676957	82.7466167263839	0	0	0	0	
19380000000	0	0	32.6754719264896	40.8818842592625	0	0	0	0	
19390000000	0	0	32.8981827886213	-1.25604950787152	0	0	0	0	
19400000000	0	0	32.8058848688908	-43.3138506862332	0	0	0	0	
19410000000	0	0	32.5581645113597	-88.1868050844548	0	0	0	0	
19420000000	0	0	32.5952186627701	-130.713650850887	0	0	0	0	
19430000000	0	0	32.4450317361339	-170.204860933791	0	0	0	0	
19440000000	0	0	32.1795246899746	149.551857144384	0	0	0	0	
19450000000	0	0	32.2067436493344	108.0906360909	0	0	0	0	
19460000000	0	0	32.6915805786554	66.9867904286455	0	0	0	0	
19470000000	0	0	32.9375165903957	24.680140709845	0	0	0	0	
19480000000	0	0	32.7018050799099	-18.6683239709781	0	0	0	0	
19490000000	0	0	32.7416648059684	-62.5794453870494	0	0	0	0	
19500000000	0	0	32.696455640282	-103.999510734238	0	0	0	0	
19510000000	0	0	32.5741453144008	-144.904740596091	0	0	0	0	
19520000000	0	0	32.5772635962917	173.146268438524	0	0	0	0	
19530000000	0	0	32.6757403517195	131.015830929321	0	0	0	0	
19540000000	0	0	32.8233323804909	88.2526034098097	0	0	0	0	
19550000000	0	0	32.9368600792788	46.2282073521221	0	0	0	0	
19560000000	0	0	32.707129244017	3.52080728419004	0	0	0	0	
19570000000	0	0	32.7314020003579	-38.6485831616357	0	0	0	0	
19580000000	0	0	32.7166800768467	-79.4689989963356	0	0	0	0	
19590000000	0	0	32.6329602737018	-120.396524371404	0	0	0	0	
19600000000	0	0	32.6849304501247	-163.711707523437	0	0	0	0	
19610000000	0	0	32.8121525997615	153.008358766157	0	0	0	0	
19620000000	0	0	32.6681049007553	110.792291009058	0	0	0	0	
19630000000	0	0	32.50570425554	69.595922256749	0	0	0	0	
19640000000	0	0	32.4406274728891	27.6491861253013	0	0	0	0	
19650000000	0	0	32.4875952238247	-14.4719332676624	0	0	0	0	
19660000000	0	0	32.5720006713587	-56.0624949046448	0	0	0	0	
19670000000	0	0	32.7010731131302	-97.9330683433261	0	0	0	0	
19680000000	0	0	32.6705020344172	-140.488680992141	0	0	0	0	
19690000000	0	0	32.6559385907494	176.824217993405	0	0	0	0	
19700000000	0	0	32.6660408125679	134.88697222218	0	0	0	0	
19710000000	0	0	32.6403321135675	93.8362395798055	0	0	0	0	
19720000000	0	0	32.6526529412881	49.6080037890366	0	0	0	0	
19730000000	0	0	32.7865579947382	7.6909897803448	0	0	0	0	
19740000000	0	0	32.768700330018	-33.7370185046155	0	0	0	0	
19750000000	0	0	32.6413108789578	-77.694011716008	0	0	0	0	
19760000000	0	0	32.5880238204091	-119.738467872213	0	0	0	0	
19770000000	0	0	32.7175837483455	-162.058253971412	0	0	0	0	
19780000000	0	0	32.6386061265132	155.867790276225	0	0	0	0	
19790000000	0	0	32.491556717677	113.390560455241	0	0	0	0	
19800000000	0	0	32.3921729458013	70.3003086723794	0	0	0	0	
19810000000	0	0	32.2588560073505	28.718908964374	0	0	0	0	
19820000000	0	0	32.0872142149111	-11.4763359550788	0	0	0	0	
19830000000	0	0	32.1447890892008	-53.2794743388687	0	0	0	0	
19840000000	0	0	32.4066514477617	-94.3563392960062	0	0	0	0	
19850000000	0	0	32.5038384587573	-136.44174398812	0	0	0	0	
19860000000	0	0	32.5469602351169	179.993135756695	0	0	0	0	
19870000000	0	0	32.3872684418534	136.817232607066	0	0	0	0	
19880000000	0	0	32.373087705072	95.2553981026653	0	0	0	0	
19890000000	0	0	32.3330679620604	53.8352308583861	0	0	0	0	
19900000000	0	0	32.1036886507056	11.9415484722481	0	0	0	0	
19910000000	0	0	32.3027835324959	-30.3264863499275	0	0	0	0	
19920000000	0	0	32.5793611091048	-72.4388089013865	0	0	0	0	
19930000000	0	0	32.4018490647669	-115.164289433063	0	0	0	0	
19940000000	0	0	32.2457050030469	-157.603990035032	0	0	0	0	
19950000000	0	0	32.3085689339156	159.933988022267	0	0	0	0	
19960000000	0	0	32.2282513408475	119.440551226093	0	0	0	0	
19970000000	0	0	32.3683636713487	76.5959450462351	0	0	0	0	
19980000000	0	0	32.4921431388253	34.6827423660186	0	0	0	0	
19990000000	0	0	32.4051622401915	-9.89091944292814	0	0	0	0	
20000000000	0	0	32.3335519581433	-52.961069497309	0	0	0	0	
