!Agilent N9918A: A.07.57
!Date: Thursday, 22 August 2019 17:30:24
!Timezone: (GMT-08:00) Pacific Time (US & Canada)
!Model: N9918A
!Serial: MY53103598
!GPS Latitude: 
!GPS Longitude: 
!GPS TimeStamp: 0001-01-01 00:00:00Z
!GPS Seconds Since Last Read: 0
!CHECKSUM:1908678151
!Correction: S11()S21(Rdy)S12()S22()
!S2P File: Measurements:S11,S21,S12,S22:
# Hz S DB R 50
16372145681.5601	0	0	-2.26976154131991	-1.23170415683488	0	0	0	0	
16409931185.972	0	0	-2.24232580370747	-26.4813731245487	0	0	0	0	
16447716690.384	0	0	-2.02647685011688	-52.7384325889581	0	0	0	0	
16485502194.796	0	0	-1.79921153768289	-81.1292584758362	0	0	0	0	
16523287699.2079	0	0	-1.78512925668169	-109.516710293092	0	0	0	0	
16561073203.6199	0	0	-1.96067350958337	-137.50200746894	0	0	0	0	
16598858708.0319	0	0	-2.09136094271478	-164.038081954623	0	0	0	0	
16636644212.4439	0	0	-1.97014449313512	169.976814793525	0	0	0	0	
16674429716.8558	0	0	-1.76337116782796	142.378821092808	0	0	0	0	
16712215221.2678	0	0	-1.75897963513036	114.115405448785	0	0	0	0	
16750000725.6798	0	0	-1.89537535911914	86.4124905975774	0	0	0	0	
16787786230.0918	0	0	-1.89461502356974	60.2535206702986	0	0	0	0	
16825571734.5037	0	0	-1.68161341671284	33.2097864045389	0	0	0	0	
16863357238.9157	0	0	-1.53531749984838	4.60461380758547	0	0	0	0	
16901142743.3277	0	0	-1.74367668308543	-24.0133540447907	0	0	0	0	
16938928247.7397	0	0	-1.98261379014548	-50.1495982904517	0	0	0	0	
16976713752.1516	0	0	-1.99488983165595	-75.1758550656866	0	0	0	0	
17014499256.5636	0	0	-1.76774051674937	-100.925902160769	0	0	0	0	
17052284760.9756	0	0	-1.56716773181435	-129.021872770703	0	0	0	0	
17090070265.3876	0	0	-1.66003078647134	-157.60189523006	0	0	0	0	
17127855769.7995	0	0	-1.84721743053336	175.231797118126	0	0	0	0	
17165641274.2115	0	0	-1.92081637673842	149.077337284897	0	0	0	0	
17203426778.6235	0	0	-1.83693298608917	122.537894947996	0	0	0	0	
17241212283.0355	0	0	-1.84187449503267	95.2557180447553	0	0	0	0	
17278997787.4474	0	0	-1.97004772098682	68.0663880011311	0	0	0	0	
17316783291.8594	0	0	-2.12728502358852	42.1903506489662	0	0	0	0	
17354568796.2714	0	0	-2.12088076557268	16.810153252292	0	0	0	0	
17392354300.6834	0	0	-1.87512861887247	-9.13383420411862	0	0	0	0	
17430139805.0953	0	0	-1.65757456013802	-36.7565725121811	0	0	0	0	
17467925309.5073	0	0	-1.67827747000882	-65.3765381224821	0	0	0	0	
17505710813.9193	0	0	-1.84728233240544	-93.0035868115287	0	0	0	0	
17543496318.3313	0	0	-1.897994608368	-119.383570261114	0	0	0	0	
17581281822.7432	0	0	-1.79267828624169	-146.746115016753	0	0	0	0	
17619067327.1552	0	0	-1.82932655532905	-175.094556820055	0	0	0	0	
17656852831.5672	0	0	-2.15185585530146	156.98419635645	0	0	0	0	
17694638335.9792	0	0	-2.50844030615936	131.773910845247	0	0	0	0	
17732423840.3911	0	0	-2.54324425911544	107.834644603822	0	0	0	0	
17770209344.8031	0	0	-2.23129191575639	83.2202003528672	0	0	0	0	
17807994849.2151	0	0	-1.85192495070958	56.4180371493188	0	0	0	0	
17845780353.6271	0	0	-1.60545275972533	28.4890053961876	0	0	0	0	
17883565858.039	0	0	-1.53486918041376	0.420040362385034	0	0	0	0	
17921351362.451	0	0	-1.51936725426065	-27.6782493203918	0	0	0	0	
17959136866.863	0	0	-1.58264589688898	-56.1808903354203	0	0	0	0	
17996922371.275	0	0	-1.9095186767845	-84.0796584572912	0	0	0	0	
18034707875.6869	0	0	-2.35106816020646	-109.942645322447	0	0	0	0	
18072493380.0989	0	0	-2.64334158023186	-133.985266593588	0	0	0	0	
18110278884.5109	0	0	-2.52614317032636	-156.915516734878	0	0	0	0	
18148064388.9229	0	0	-2.09745814388275	178.267916729218	0	0	0	0	
18185849893.3349	0	0	-1.65817495633943	150.738728576824	0	0	0	0	
18223635397.7468	0	0	-1.53764148873554	122.085756657193	0	0	0	0	
18261420902.1588	0	0	-1.64915579844685	94.424621852007	0	0	0	0	
18299206406.5708	0	0	-1.71282428916953	67.6720533803284	0	0	0	0	
18336991910.9828	0	0	-1.69755225428842	40.9190283049352	0	0	0	0	
18374777415.3947	0	0	-1.77261555175171	13.6963571134414	0	0	0	0	
18412562919.8067	0	0	-1.91292595985729	-12.5851921252275	0	0	0	0	
18450348424.2187	0	0	-1.8765343780341	-37.8973520128853	0	0	0	0	
18488133928.6307	0	0	-1.67765316761474	-64.112023957992	0	0	0	0	
18525919433.0426	0	0	-1.46043924438778	-91.6899933772372	0	0	0	0	
18563704937.4546	0	0	-1.49381998251506	-120.15426986651	0	0	0	0	
18601490441.8666	0	0	-1.76400484781553	-147.31481009473	0	0	0	0	
18639275946.2786	0	0	-1.99712486031853	-172.59654939448	0	0	0	0	
18677061450.6905	0	0	-1.98815694768474	162.462287482435	0	0	0	0	
18714846955.1025	0	0	-1.82330339364351	136.542023116966	0	0	0	0	
18752632459.5145	0	0	-1.69793284229847	109.500854445818	0	0	0	0	
18790417963.9265	0	0	-1.67935077774878	82.0870579697209	0	0	0	0	
18828203468.3384	0	0	-1.75418354912142	54.9546587158071	0	0	0	0	
18865988972.7504	0	0	-1.77296931915594	28.4820803441436	0	0	0	0	
18903774477.1624	0	0	-1.68144507673405	1.61275715574869	0	0	0	0	
18941559981.5744	0	0	-1.59167764692805	-26.0386376693799	0	0	0	0	
18979345485.9863	0	0	-1.62853117987257	-54.4920302720375	0	0	0	0	
19017130990.3983	0	0	-1.84222860491621	-82.3260751610429	0	0	0	0	
19054916494.8103	0	0	-2.02646935887923	-109.404686479159	0	0	0	0	
19092701999.2223	0	0	-2.08339744825539	-135.425173305589	0	0	0	0	
19130487503.6342	0	0	-2.03077465929144	-161.357478854756	0	0	0	0	
19168273008.0462	0	0	-1.9994329626715	172.859327107794	0	0	0	0	
19206058512.4582	0	0	-1.88064855394126	147.365134224261	0	0	0	0	
19243844016.8702	0	0	-1.75130374662876	121.494683543212	0	0	0	0	
19281629521.2822	0	0	-1.62495543323905	94.3033568896834	0	0	0	0	
19319415025.6941	0	0	-1.69891132887997	66.5771321953455	0	0	0	0	
19357200530.1061	0	0	-2.01680728976517	39.8003972779363	0	0	0	0	
19394986034.5181	0	0	-2.31982508510456	14.7944550889017	0	0	0	0	
19432771538.9301	0	0	-2.48064993171894	-9.53672173323858	0	0	0	0	
19470557043.342	0	0	-2.50329385679625	-33.5686808235939	0	0	0	0	
19508342547.754	0	0	-2.37190504547991	-57.9297530544141	0	0	0	0	
19546128052.166	0	0	-2.13396220414594	-82.7296220247878	0	0	0	0	
19583913556.578	0	0	-1.94543736103788	-108.763230835681	0	0	0	0	
19621699060.9899	0	0	-1.74879308169991	-134.292150150734	0	0	0	0	
19659484565.4019	0	0	-1.88447290126036	-161.301025433239	0	0	0	0	
19697270069.8139	0	0	-1.95451437860699	171.402178206916	0	0	0	0	
19735055574.2259	0	0	-2.05692669041152	144.576949964766	0	0	0	0	
19772841078.6378	0	0	-2.21530764462699	118.076517935265	0	0	0	0	
19810626583.0498	0	0	-2.27724152011355	92.3810573281774	0	0	0	0	
19848412087.4618	0	0	-2.26960724196383	66.795301006869	0	0	0	0	
19886197591.8738	0	0	-2.14718945223186	40.4552221174226	0	0	0	0	
19923983096.2857	0	0	-2.00225339795701	13.3047716490456	0	0	0	0	
19961768600.6977	0	0	-2.0074486015332	-14.2763878293055	0	0	0	0	
19999554105.1097	0	0	-2.0248150928499	-41.2234922499611	0	0	0	0	
20037339609.5217	0	0	-2.10919963726719	-65.8152638662489	0	0	0	0	
20075125113.9336	0	0	-2.20612983973468	-92.9618044387246	0	0	0	0	
20112910618.3456	0	0	-2.37693035193865	-119.016054226545	0	0	0	0	
20150696122.7576	0	0	-2.61208456270755	-145.045565355296	0	0	0	0	
20188481627.1696	0	0	-2.79518477000144	-169.438059436224	0	0	0	0	
20226267131.5815	0	0	-2.71911051009187	166.074275631685	0	0	0	0	
20264052635.9935	0	0	-2.585398099275	141.417356547668	0	0	0	0	
20301838140.4055	0	0	-2.37847421929831	116.240440149367	0	0	0	0	
20339623644.8175	0	0	-2.13118703851636	89.2805937679142	0	0	0	0	
20377409149.2295	0	0	-1.92812118735057	61.6354440111292	0	0	0	0	
20415194653.6414	0	0	-1.96448324820841	34.1723951658068	0	0	0	0	
20452980158.0534	0	0	-2.09048919881796	7.95507207203048	0	0	0	0	
20490765662.4654	0	0	-2.14766401782992	-17.8522315601057	0	0	0	0	
20528551166.8774	0	0	-2.18826706950211	-44.0663770547003	0	0	0	0	
20566336671.2893	0	0	-2.1524149622387	-69.8591671825853	0	0	0	0	
20604122175.7013	0	0	-2.22091646853771	-96.3709846081668	0	0	0	0	
20641907680.1133	0	0	-2.25975514688595	-122.763367362146	0	0	0	0	
20679693184.5253	0	0	-2.16198362927828	-149.259396364059	0	0	0	0	
20717478688.9372	0	0	-2.15159281355795	-176.136820002673	0	0	0	0	
20755264193.3492	0	0	-2.21653392334234	157.255759074583	0	0	0	0	
20793049697.7612	0	0	-2.36680521559308	130.431252368745	0	0	0	0	
20830835202.1732	0	0	-2.48548127650556	104.991441329657	0	0	0	0	
20868620706.5851	0	0	-2.46324708626535	79.8840279031588	0	0	0	0	
20906406210.9971	0	0	-2.46060097343423	53.7911665235387	0	0	0	0	
20944191715.4091	0	0	-2.50166971273124	27.8339503742621	0	0	0	0	
20981977219.8211	0	0	-2.53195989893874	1.63534544851039	0	0	0	0	
21019762724.233	0	0	-2.58429458575561	-24.8436795579282	0	0	0	0	
21057548228.645	0	0	-2.61005945404809	-50.6074759287857	0	0	0	0	
21095333733.057	0	0	-2.53367247050638	-75.5802901367516	0	0	0	0	
21133119237.469	0	0	-2.5146737285045	-101.778132534156	0	0	0	0	
21170904741.8809	0	0	-2.45739617867637	-128.083865138766	0	0	0	0	
21208690246.2929	0	0	-2.49705643039626	-153.987274274016	0	0	0	0	
21246475750.7049	0	0	-2.53695105371203	-179.412687268573	0	0	0	0	
21284261255.1169	0	0	-2.55604587639775	155.420517000847	0	0	0	0	
21322046759.5288	0	0	-2.45897280627487	130.193552860016	0	0	0	0	
21359832263.9408	0	0	-2.36474333151587	105.072384888406	0	0	0	0	
21397617768.3528	0	0	-2.40459619666314	80.0133424580356	0	0	0	0	
21435403272.7648	0	0	-2.435131713166	55.3360475637476	0	0	0	0	
21473188777.1768	0	0	-2.35353449175595	31.2831437708681	0	0	0	0	
21510974281.5887	0	0	-2.282430021241	6.05562460287637	0	0	0	0	
21548759786.0007	0	0	-2.4279840178744	-21.323313194954	0	0	0	0	
21586545290.4127	0	0	-2.73011784673679	-48.7854444041255	0	0	0	0	
21624330794.8247	0	0	-3.02929570342435	-76.0220239424862	0	0	0	0	
21662116299.2366	0	0	-3.05963288098374	-103.114236213592	0	0	0	0	
21699901803.6486	0	0	-3.00731375312971	-130.647144125977	0	0	0	0	
21737687308.0606	0	0	-2.98363095795933	-158.374085667993	0	0	0	0	
21775472812.4726	0	0	-2.72234354288721	172.353210722249	0	0	0	0	
21813258316.8845	0	0	-2.61671684289233	143.916550304248	0	0	0	0	
21851043821.2965	0	0	-2.53131194658014	114.812209691915	0	0	0	0	
21888829325.7085	0	0	-2.49347654117153	86.735478340033	0	0	0	0	
21926614830.1205	0	0	-2.42482654705359	61.1702262258727	0	0	0	0	
21964400334.5324	0	0	-2.53295863781451	37.3809441750847	0	0	0	0	
22002185838.9444	0	0	-2.67449737844469	13.6211780667754	0	0	0	0	
22039971343.3564	0	0	-2.70870211607712	-10.7841283310077	0	0	0	0	
22077756847.7684	0	0	-2.61846995423218	-34.1943245350435	0	0	0	0	
22115542352.1803	0	0	-2.53260987711715	-58.8845540602347	0	0	0	0	
22153327856.5923	0	0	-2.44301379267263	-85.1873770883315	0	0	0	0	
22191113361.0043	0	0	-2.67098401786056	-111.138295490455	0	0	0	0	
22228898865.4163	0	0	-2.6930222274961	-136.649762350653	0	0	0	0	
22266684369.8282	0	0	-2.59059103802069	-162.165351900333	0	0	0	0	
22304469874.2402	0	0	-2.55259688299617	170.563793782955	0	0	0	0	
22342255378.6522	0	0	-2.75126024315625	143.48178142571	0	0	0	0	
22380040883.0642	0	0	-3.10196045171341	116.971395402304	0	0	0	0	
22417826387.4761	0	0	-3.58802940457432	92.8193559407347	0	0	0	0	
22455611891.8881	0	0	-3.73654808830758	69.8212073869062	0	0	0	0	
22493397396.3001	0	0	-3.70717439898058	46.7159477073662	0	0	0	0	
22531182900.7121	0	0	-3.34582019460041	24.0363293085286	0	0	0	0	
22568968405.1241	0	0	-2.85810984979369	-1.18884684276681	0	0	0	0	
22606753909.536	0	0	-2.5373093079735	-29.1850940572096	0	0	0	0	
22644539413.948	0	0	-2.42637048998086	-56.6491443294431	0	0	0	0	
22682324918.36	0	0	-2.50162966250339	-83.4913833262666	0	0	0	0	
22720110422.772	0	0	-2.46202717504945	-110.444037284129	0	0	0	0	
22757895927.1839	0	0	-2.47970277437695	-138.290240024925	0	0	0	0	
22795681431.5959	0	0	-2.75841653320072	-165.369935607536	0	0	0	0	
22833466936.0079	0	0	-2.89229364848761	170.130972883141	0	0	0	0	
22871252440.4199	0	0	-2.91710813768593	145.44215538959	0	0	0	0	
22909037944.8318	0	0	-2.55585033037528	119.774526093227	0	0	0	0	
22946823449.2438	0	0	-2.49519308698893	91.8764257867622	0	0	0	0	
22984608953.6558	0	0	-2.68578953915892	63.5537936311972	0	0	0	0	
23022394458.0678	0	0	-3.01238603914812	37.9076518178105	0	0	0	0	
23060179962.4797	0	0	-3.25505042702952	13.0223594354613	0	0	0	0	
23097965466.8917	0	0	-3.2809086336197	-10.9407359329426	0	0	0	0	
23135750971.3037	0	0	-3.20162336691558	-35.4102292405549	0	0	0	0	
23173536475.7157	0	0	-3.0115260257435	-62.4965478739641	0	0	0	0	
23211321980.1276	0	0	-3.08299336944405	-87.6343838646661	0	0	0	0	
23249107484.5396	0	0	-3.22613539312174	-113.034039794029	0	0	0	0	
23286892988.9516	0	0	-3.24808546721292	-135.453370024996	0	0	0	0	
23324678493.3636	0	0	-2.79605174544664	-160.134301330793	0	0	0	0	
23362463997.7755	0	0	-2.43614272091795	172.446815445702	0	0	0	0	
23400249502.1875	0	0	-2.30990867854343	144.008151961695	0	0	0	0	
23438035006.5995	0	0	-2.40508556730719	117.011237241823	0	0	0	0	
23475820511.0115	0	0	-2.61473157726247	91.0741519414567	0	0	0	0	
23513606015.4234	0	0	-2.6175536017894	66.5506395977916	0	0	0	0	
23551391519.8354	0	0	-2.45974262580786	40.5743734715114	0	0	0	0	
23589177024.2474	0	0	-2.52516105894024	13.879616076052	0	0	0	0	
23626962528.6594	0	0	-2.55638392149299	-12.5622893483158	0	0	0	0	
23664748033.0714	0	0	-2.67590181401682	-38.6791724351043	0	0	0	0	
23702533537.4833	0	0	-2.72932019407341	-64.2946146304467	0	0	0	0	
23740319041.8953	0	0	-2.9269892844242	-90.7342729313662	0	0	0	0	
23778104546.3073	0	0	-3.21729314023585	-116.852869039693	0	0	0	0	
23815890050.7193	0	0	-3.65753557473296	-142.225037526065	0	0	0	0	
23853675555.1312	0	0	-3.92808538389912	-165.219000733943	0	0	0	0	
23891461059.5432	0	0	-3.9587875670967	173.20553426418	0	0	0	0	
23929246563.9552	0	0	-3.63841167501987	150.631110024135	0	0	0	0	
