!Agilent N9918A: A.07.57
!Date: Thursday, 22 August 2019 13:28:57
!Timezone: (GMT-08:00) Pacific Time (US & Canada)
!Model: N9918A
!Serial: MY53103598
!GPS Latitude: 
!GPS Longitude: 
!GPS TimeStamp: 0001-01-01 00:00:00Z
!GPS Seconds Since Last Read: 0
!CHECKSUM:0986031725
!Correction: S11()S21(Rdy)S12()S22()
!S2P File: Measurements:S11,S21,S12,S22:
# Hz S DB R 50
16372145681.5601	0	0	-1.68691755551049	-47.2791796372982	0	0	0	0	
16409931185.972	0	0	-1.62775725138431	-76.459882136443	0	0	0	0	
16447716690.384	0	0	-1.89498623889494	-105.123214162033	0	0	0	0	
16485502194.796	0	0	-2.18401809808534	-132.089466715985	0	0	0	0	
16523287699.2079	0	0	-2.2869591803656	-157.75620167386	0	0	0	0	
16561073203.6199	0	0	-2.11582546009792	175.994860557107	0	0	0	0	
16598858708.0319	0	0	-1.78181386017177	148.797959627108	0	0	0	0	
16636644212.4439	0	0	-1.56150671285333	119.778221447706	0	0	0	0	
16674429716.8558	0	0	-1.62140116547294	90.4956308251757	0	0	0	0	
16712215221.2678	0	0	-1.82735041811905	62.9527227120956	0	0	0	0	
16750000725.6798	0	0	-1.85157975310745	35.8742114980432	0	0	0	0	
16787786230.0918	0	0	-1.66844676213443	8.64216781580032	0	0	0	0	
16825571734.5037	0	0	-1.55495026908382	-19.9097697309718	0	0	0	0	
16863357238.9157	0	0	-1.62808276643976	-48.2196742363315	0	0	0	0	
16901142743.3277	0	0	-1.67155910745205	-75.7175508466779	0	0	0	0	
16938928247.7397	0	0	-1.58823356674401	-103.665562313625	0	0	0	0	
16976713752.1516	0	0	-1.70074994112355	-132.859743232007	0	0	0	0	
17014499256.5636	0	0	-2.16244392120592	-160.858027756089	0	0	0	0	
17052284760.9756	0	0	-2.60241249185804	174.332950429416	0	0	0	0	
17090070265.3876	0	0	-2.65883821550934	150.496986974591	0	0	0	0	
17127855769.7995	0	0	-2.31794126536306	125.546475971095	0	0	0	0	
17165641274.2115	0	0	-1.87583203097254	98.5138403627655	0	0	0	0	
17203426778.6235	0	0	-1.63377167508769	69.68185108725	0	0	0	0	
17241212283.0355	0	0	-1.66140626388817	40.9703185321837	0	0	0	0	
17278997787.4474	0	0	-1.76402382261169	13.2205182175751	0	0	0	0	
17316783291.8594	0	0	-1.79663970725187	-14.1296255227565	0	0	0	0	
17354568796.2714	0	0	-1.86520995906739	-42.0673942757106	0	0	0	0	
17392354300.6834	0	0	-2.07229380045501	-69.615761830145	0	0	0	0	
17430139805.0953	0	0	-2.30327785965633	-95.9592155502625	0	0	0	0	
17467925309.5073	0	0	-2.41943942722276	-121.266227643384	0	0	0	0	
17505710813.9193	0	0	-2.23400477004957	-147.324829141366	0	0	0	0	
17543496318.3313	0	0	-2.03244574007711	-175.038664872881	0	0	0	0	
17581281822.7432	0	0	-2.09778509116691	156.529064755687	0	0	0	0	
17619067327.1552	0	0	-2.26697547155806	129.672691037843	0	0	0	0	
17656852831.5672	0	0	-2.27380187751519	104.443287214581	0	0	0	0	
17694638335.9792	0	0	-1.99794332886309	78.7351259072543	0	0	0	0	
17732423840.3911	0	0	-1.60674723517484	50.9319316961628	0	0	0	0	
17770209344.8031	0	0	-1.53123089223477	21.7010492515391	0	0	0	0	
17807994849.2151	0	0	-1.66569770720064	-5.87423220044329	0	0	0	0	
17845780353.6271	0	0	-1.72912074986728	-32.6907940943645	0	0	0	0	
17883565858.039	0	0	-1.58380840147648	-59.2696985069068	0	0	0	0	
17921351362.451	0	0	-1.49442500241267	-87.5467852458618	0	0	0	0	
17959136866.863	0	0	-1.64300138160126	-115.12530006844	0	0	0	0	
17996922371.275	0	0	-1.74904726216296	-141.340472768985	0	0	0	0	
18034707875.6869	0	0	-1.67910696156481	-166.889249631623	0	0	0	0	
18072493380.0989	0	0	-1.44971561923083	166.044100843644	0	0	0	0	
18110278884.5109	0	0	-1.31552854852893	137.422305425478	0	0	0	0	
18148064388.9229	0	0	-1.54099862775444	109.000297129861	0	0	0	0	
18185849893.3349	0	0	-1.75901371033687	83.0476063524913	0	0	0	0	
18223635397.7468	0	0	-1.72217182193212	57.8846510573922	0	0	0	0	
18261420902.1588	0	0	-1.43212444598208	31.0224789182858	0	0	0	0	
18299206406.5708	0	0	-1.26331186021263	2.10993270690849	0	0	0	0	
18336991910.9828	0	0	-1.55599499430158	-26.6301601548795	0	0	0	0	
18374777415.3947	0	0	-1.93537167364135	-52.8655127952321	0	0	0	0	
18412562919.8067	0	0	-1.94135801592344	-77.5469552527872	0	0	0	0	
18450348424.2187	0	0	-1.64662758567502	-103.349725084586	0	0	0	0	
18488133928.6307	0	0	-1.38119812464025	-131.408379253903	0	0	0	0	
18525919433.0426	0	0	-1.38435442825443	-159.846073157767	0	0	0	0	
18563704937.4546	0	0	-1.53324158085982	172.94776521544	0	0	0	0	
18601490441.8666	0	0	-1.57872021543645	146.197795428928	0	0	0	0	
18639275946.2786	0	0	-1.57112492596252	119.013620460571	0	0	0	0	
18677061450.6905	0	0	-1.71469793906381	91.2916294287251	0	0	0	0	
18714846955.1025	0	0	-2.01111661230677	64.5514206849554	0	0	0	0	
18752632459.5145	0	0	-2.22291008430217	38.9705310858607	0	0	0	0	
18790417963.9265	0	0	-2.19042571116954	14.421026513953	0	0	0	0	
18828203468.3384	0	0	-1.89287790426472	-11.2762834548542	0	0	0	0	
18865988972.7504	0	0	-1.6037707802131	-39.1567055977377	0	0	0	0	
18903774477.1624	0	0	-1.54549995160138	-67.9822343658391	0	0	0	0	
18941559981.5744	0	0	-1.7234069447428	-96.4589673425252	0	0	0	0	
18979345485.9863	0	0	-1.93904503267983	-123.135664755608	0	0	0	0	
19017130990.3983	0	0	-1.92358884135003	-149.390710507902	0	0	0	0	
19054916494.8103	0	0	-1.75727429574939	-176.198573261047	0	0	0	0	
19092701999.2223	0	0	-1.5990370738428	155.815588498086	0	0	0	0	
19130487503.6342	0	0	-1.55490416817749	128.391774200874	0	0	0	0	
19168273008.0462	0	0	-1.56649477243831	101.800748868309	0	0	0	0	
19206058512.4582	0	0	-1.50976615704649	74.8237029563556	0	0	0	0	
19243844016.8702	0	0	-1.57167501053074	47.5638921347839	0	0	0	0	
19281629521.2822	0	0	-1.70930053928187	21.0220089581926	0	0	0	0	
19319415025.6941	0	0	-1.90453450085157	-5.01714988221875	0	0	0	0	
19357200530.1061	0	0	-1.95912463176897	-29.8294151290346	0	0	0	0	
19394986034.5181	0	0	-1.88011957248382	-55.1132480216258	0	0	0	0	
19432771538.9301	0	0	-1.75894034447021	-81.1761253845023	0	0	0	0	
19470557043.342	0	0	-1.69144502000445	-108.185555687327	0	0	0	0	
19508342547.754	0	0	-1.72854346433827	-134.977910048642	0	0	0	0	
19546128052.166	0	0	-1.85785319895215	-160.987343737462	0	0	0	0	
19583913556.578	0	0	-1.95960212749681	173.943745913651	0	0	0	0	
19621699060.9899	0	0	-1.87698301183179	149.613597536914	0	0	0	0	
19659484565.4019	0	0	-1.85756256490046	123.012752547763	0	0	0	0	
19697270069.8139	0	0	-1.86214067165114	95.6646694391508	0	0	0	0	
19735055574.2259	0	0	-1.94080784900305	68.4889733700557	0	0	0	0	
19772841078.6378	0	0	-1.97947856390058	41.8319617534943	0	0	0	0	
19810626583.0498	0	0	-1.98566267768544	15.4383468843267	0	0	0	0	
19848412087.4618	0	0	-1.93025986149942	-11.3881701708181	0	0	0	0	
19886197591.8738	0	0	-1.95067561919555	-38.6377918731136	0	0	0	0	
19923983096.2857	0	0	-1.95818427605949	-65.7370713698049	0	0	0	0	
19961768600.6977	0	0	-1.94983699800758	-92.7349357146544	0	0	0	0	
19999554105.1097	0	0	-1.95462672966489	-119.963117136783	0	0	0	0	
20037339609.5217	0	0	-2.02772879067335	-144.78432974446	0	0	0	0	
20075125113.9336	0	0	-2.22717477871124	-171.459323665356	0	0	0	0	
20112910618.3456	0	0	-2.38866275999644	163.108987699813	0	0	0	0	
20150696122.7576	0	0	-2.30550704201592	138.077188878712	0	0	0	0	
20188481627.1696	0	0	-2.26607716690233	113.333597364598	0	0	0	0	
20226267131.5815	0	0	-1.99799787167224	86.7475006174117	0	0	0	0	
20264052635.9935	0	0	-1.87694292280303	59.082153566944	0	0	0	0	
20301838140.4055	0	0	-1.89798720220742	31.5587826809956	0	0	0	0	
20339623644.8175	0	0	-2.05114059182187	4.41738838223583	0	0	0	0	
20377409149.2295	0	0	-2.22911996888391	-21.35912531614	0	0	0	0	
20415194653.6414	0	0	-2.09733391222008	-46.4889456357497	0	0	0	0	
20452980158.0534	0	0	-2.01332144623259	-71.9619218134851	0	0	0	0	
20490765662.4654	0	0	-1.87170234565635	-99.3831870921794	0	0	0	0	
20528551166.8774	0	0	-1.91100658831924	-126.593374540979	0	0	0	0	
20566336671.2893	0	0	-1.94367949771855	-152.505185038936	0	0	0	0	
20604122175.7013	0	0	-1.92792678826168	-179.79171966207	0	0	0	0	
20641907680.1133	0	0	-1.93663113999417	152.653479283708	0	0	0	0	
20679693184.5253	0	0	-2.07594124315804	126.105914879704	0	0	0	0	
20717478688.9372	0	0	-2.24950835719891	99.7646911239893	0	0	0	0	
20755264193.3492	0	0	-2.22234079451333	74.1637864901753	0	0	0	0	
20793049697.7612	0	0	-2.13272662350946	47.3187591236624	0	0	0	0	
20830835202.1732	0	0	-2.1353361558916	20.955199983661	0	0	0	0	
20868620706.5851	0	0	-2.25957156976113	-5.94176530202226	0	0	0	0	
20906406210.9971	0	0	-2.38721024913412	-32.7987502750227	0	0	0	0	
20944191715.4091	0	0	-2.49585493072607	-58.3680785799511	0	0	0	0	
20981977219.8211	0	0	-2.59293287485352	-83.5225073828355	0	0	0	0	
21019762724.233	0	0	-2.50691290214486	-109.121116789418	0	0	0	0	
21057548228.645	0	0	-2.39855508138426	-135.218777107734	0	0	0	0	
21095333733.057	0	0	-2.3573416151324	-161.859285392864	0	0	0	0	
21133119237.469	0	0	-2.28681461945068	170.877056478309	0	0	0	0	
21170904741.8809	0	0	-2.26301143728965	144.591160205013	0	0	0	0	
21208690246.2929	0	0	-2.29362069082037	118.979291691867	0	0	0	0	
21246475750.7049	0	0	-2.29022625504798	92.697653862102	0	0	0	0	
21284261255.1169	0	0	-2.38910306921034	66.5495213884607	0	0	0	0	
21322046759.5288	0	0	-2.35466127851683	41.8516240621708	0	0	0	0	
21359832263.9408	0	0	-2.43678764619222	17.2783105248312	0	0	0	0	
21397617768.3528	0	0	-2.28515241793587	-7.49624078743182	0	0	0	0	
21435403272.7648	0	0	-2.28003660042764	-32.7017413876622	0	0	0	0	
21473188777.1768	0	0	-2.19046005804347	-57.7975170116774	0	0	0	0	
21510974281.5887	0	0	-2.21789199722032	-82.5370485560499	0	0	0	0	
21548759786.0007	0	0	-2.26144762686624	-109.590551176353	0	0	0	0	
21586545290.4127	0	0	-2.27255535099984	-136.869782737093	0	0	0	0	
21624330794.8247	0	0	-2.29941012288066	-165.281452665128	0	0	0	0	
21662116299.2366	0	0	-2.46021671130976	165.105243468716	0	0	0	0	
21699901803.6486	0	0	-2.72479151902519	135.608067530634	0	0	0	0	
21737687308.0606	0	0	-2.64532047170242	107.100600955592	0	0	0	0	
21775472812.4726	0	0	-2.72725286401913	79.2945381635631	0	0	0	0	
21813258316.8845	0	0	-2.70396638917442	51.5305882738407	0	0	0	0	
21851043821.2965	0	0	-2.43516998569611	23.5731978828691	0	0	0	0	
21888829325.7085	0	0	-2.30792138688269	-4.79997147207205	0	0	0	0	
21926614830.1205	0	0	-2.24334705004637	-31.1524592751335	0	0	0	0	
21964400334.5324	0	0	-2.50527448851407	-54.5611479265777	0	0	0	0	
22002185838.9444	0	0	-2.47487435326992	-77.891691207612	0	0	0	0	
22039971343.3564	0	0	-2.44792585039568	-102.694310151945	0	0	0	0	
22077756847.7684	0	0	-2.4110071483593	-127.652225485834	0	0	0	0	
22115542352.1803	0	0	-2.4378644825443	-153.492961659775	0	0	0	0	
22153327856.5923	0	0	-2.38363048213521	-179.278643742897	0	0	0	0	
22191113361.0043	0	0	-2.41313784457713	154.254719208359	0	0	0	0	
22228898865.4163	0	0	-2.37501364807752	127.909884608157	0	0	0	0	
22266684369.8282	0	0	-2.6998389734936	101.375283459107	0	0	0	0	
22304469874.2402	0	0	-3.00506072723102	76.6224479300535	0	0	0	0	
22342255378.6522	0	0	-2.96986148703521	53.0236753412334	0	0	0	0	
22380040883.0642	0	0	-2.87526889379955	28.0003938315005	0	0	0	0	
22417826387.4761	0	0	-2.71153034696074	1.91790091858571	0	0	0	0	
22455611891.8881	0	0	-2.53779059934441	-23.7541014270105	0	0	0	0	
22493397396.3001	0	0	-2.3553234343156	-51.5799010636805	0	0	0	0	
22531182900.7121	0	0	-2.59073619658865	-77.7374313426759	0	0	0	0	
22568968405.1241	0	0	-2.72838073779575	-103.456673933211	0	0	0	0	
22606753909.536	0	0	-2.6243163667545	-128.39306739592	0	0	0	0	
22644539413.948	0	0	-2.40504056378288	-153.926116186331	0	0	0	0	
22682324918.36	0	0	-2.39330952914158	179.789652639254	0	0	0	0	
22720110422.772	0	0	-2.29327891517365	151.983863888945	0	0	0	0	
22757895927.1839	0	0	-2.25794009543941	125.512725488228	0	0	0	0	
22795681431.5959	0	0	-2.26324213911303	99.1495376843421	0	0	0	0	
22833466936.0079	0	0	-2.33193872846005	71.3612294263528	0	0	0	0	
22871252440.4199	0	0	-2.43071490066351	43.7392104176712	0	0	0	0	
22909037944.8318	0	0	-2.57907844151304	19.1596958131599	0	0	0	0	
22946823449.2438	0	0	-2.66738568896463	-6.67340784425891	0	0	0	0	
22984608953.6558	0	0	-2.5990695779464	-32.82571573781	0	0	0	0	
23022394458.0678	0	0	-2.44391463074681	-59.9065947616045	0	0	0	0	
23060179962.4797	0	0	-2.68469771076311	-87.8161664430907	0	0	0	0	
23097965466.8917	0	0	-2.89057997335705	-112.654181805307	0	0	0	0	
23135750971.3037	0	0	-3.10978245151635	-137.548555812067	0	0	0	0	
23173536475.7157	0	0	-3.07431335975912	-161.248671939806	0	0	0	0	
23211321980.1276	0	0	-2.74327160691085	174.501032812388	0	0	0	0	
23249107484.5396	0	0	-2.59287852976445	148.671290687671	0	0	0	0	
23286892988.9516	0	0	-2.23368147184657	122.384860300817	0	0	0	0	
23324678493.3636	0	0	-2.16824511086131	95.4647939590048	0	0	0	0	
23362463997.7755	0	0	-2.13402496118572	69.0169010666934	0	0	0	0	
23400249502.1875	0	0	-2.15406183518846	41.7612277284488	0	0	0	0	
23438035006.5995	0	0	-1.84198311438297	15.6230611129934	0	0	0	0	
23475820511.0115	0	0	-1.8922936301008	-12.1782973301472	0	0	0	0	
23513606015.4234	0	0	-2.03270685764672	-39.2833235763426	0	0	0	0	
23551391519.8354	0	0	-2.22623454629193	-65.2009981042457	0	0	0	0	
23589177024.2474	0	0	-2.15945470975921	-90.3366356716551	0	0	0	0	
23626962528.6594	0	0	-2.25637387475835	-117.056137499361	0	0	0	0	
23664748033.0714	0	0	-2.51826893577363	-143.784237868653	0	0	0	0	
23702533537.4833	0	0	-2.80219591650518	-167.609030637537	0	0	0	0	
23740319041.8953	0	0	-2.77510698205456	168.102302554614	0	0	0	0	
23778104546.3073	0	0	-2.59966787723531	143.005517047497	0	0	0	0	
23815890050.7193	0	0	-2.50060596930581	115.650229318289	0	0	0	0	
23853675555.1312	0	0	-2.60388065749763	88.7018444801503	0	0	0	0	
23891461059.5432	0	0	-2.77950023567252	63.195746966748	0	0	0	0	
23929246563.9552	0	0	-2.95356967924671	38.7437916893807	0	0	0	0	
