!Agilent N9918A: A.07.57
!Date: Thursday, 22 August 2019 15:34:20
!Timezone: (GMT-08:00) Pacific Time (US & Canada)
!Model: N9918A
!Serial: MY53103598
!GPS Latitude: 
!GPS Longitude: 
!GPS TimeStamp: 0001-01-01 00:00:00Z
!GPS Seconds Since Last Read: 0
!CHECKSUM:2108327879
!Correction: S11()S21(Rdy)S12()S22()
!S2P File: Measurements:S11,S21,S12,S22:
# Hz S DB R 50
16372145681.5601	0	0	-3.2508943143038	76.3908587110805	0	0	0	0	
16409931185.972	0	0	-3.80641115679909	-115.665193417056	0	0	0	0	
16447716690.384	0	0	-3.44992896371329	61.4869071664638	0	0	0	0	
16485502194.796	0	0	-3.58346979046402	-127.447922445683	0	0	0	0	
16523287699.2079	0	0	-3.16337129016814	49.9491281755779	0	0	0	0	
16561073203.6199	0	0	-3.16687594094455	-138.139932434935	0	0	0	0	
16598858708.0319	0	0	-3.00079826264703	38.2105103411947	0	0	0	0	
16636644212.4439	0	0	-3.26849008344076	-147.120908175926	0	0	0	0	
16674429716.8558	0	0	-3.17777091350878	30.3590564836601	0	0	0	0	
16712215221.2678	0	0	-3.4878545472915	-151.172986785826	0	0	0	0	
16750000725.6798	0	0	-3.16141310652177	29.0106954705985	0	0	0	0	
16787786230.0918	0	0	-3.31982659286888	-149.942935491055	0	0	0	0	
16825571734.5037	0	0	-3.03408713636921	31.9178308127974	0	0	0	0	
16863357238.9157	0	0	-3.08155009008824	-146.464413978603	0	0	0	0	
16901142743.3277	0	0	-3.0513256891232	34.474606096842	0	0	0	0	
16938928247.7397	0	0	-3.05278473866385	-143.266722032284	0	0	0	0	
16976713752.1516	0	0	-3.25177292685682	38.2574109607681	0	0	0	0	
17014499256.5636	0	0	-3.01490933345254	-134.880897538465	0	0	0	0	
17052284760.9756	0	0	-3.09759632653315	50.0524277350517	0	0	0	0	
17090070265.3876	0	0	-2.9768718041317	-117.925049163603	0	0	0	0	
17127855769.7995	0	0	-2.99994581411345	69.2122276494541	0	0	0	0	
17165641274.2115	0	0	-3.06330163957219	-100.468469292934	0	0	0	0	
17203426778.6235	0	0	-2.97494428794219	86.6643241925267	0	0	0	0	
17241212283.0355	0	0	-2.95841342539407	-84.1800546542745	0	0	0	0	
17278997787.4474	0	0	-3.03035045036073	104.969498931853	0	0	0	0	
17316783291.8594	0	0	-3.09977881733524	-64.4459923930665	0	0	0	0	
17354568796.2714	0	0	-3.25654334083252	126.811209001276	0	0	0	0	
17392354300.6834	0	0	-3.12022712051452	-40.1949763918458	0	0	0	0	
17430139805.0953	0	0	-3.04110629543791	153.729483053488	0	0	0	0	
17467925309.5073	0	0	-3.0144908535728	-12.2629976594757	0	0	0	0	
17505710813.9193	0	0	-3.21670229612378	-178.941953285567	0	0	0	0	
17543496318.3313	0	0	-3.18913498087695	12.5554199613681	0	0	0	0	
17581281822.7432	0	0	-3.09557474497926	-154.364459484145	0	0	0	0	
17619067327.1552	0	0	-2.83060330231076	40.8490764647431	0	0	0	0	
17656852831.5672	0	0	-2.97643833924512	-119.709160297322	0	0	0	0	
17694638335.9792	0	0	-3.20495830821153	78.0977277104338	0	0	0	0	
17732423840.3911	0	0	-3.58347595001514	-83.6070624965163	0	0	0	0	
17770209344.8031	0	0	-3.32863365567994	112.248176141513	0	0	0	0	
17807994849.2151	0	0	-3.18815022311927	-49.955746481603	0	0	0	0	
17845780353.6271	0	0	-2.79671689687824	148.542640996742	0	0	0	0	
17883565858.039	0	0	-2.79010436224547	-12.6007331202998	0	0	0	0	
17921351362.451	0	0	-2.78245623851564	-173.755881415405	0	0	0	0	
17959136866.863	0	0	-2.93122564230718	28.0260311388553	0	0	0	0	
17996922371.275	0	0	-2.92732162309335	-132.756860972059	0	0	0	0	
18034707875.6869	0	0	-3.32507190596853	67.926112574217	0	0	0	0	
18072493380.0989	0	0	-2.88953330631567	-90.1989169282155	0	0	0	0	
18110278884.5109	0	0	-2.77951996587011	111.114316998197	0	0	0	0	
18148064388.9229	0	0	-2.70121889760153	-43.5433183811292	0	0	0	0	
18185849893.3349	0	0	-2.69649105874453	158.164583693641	0	0	0	0	
18223635397.7468	0	0	-2.89707359681404	0.255752052363846	0	0	0	0	
18261420902.1588	0	0	-2.61748038501486	-155.294713429673	0	0	0	0	
18299206406.5708	0	0	-2.8149568281542	50.3119478850317	0	0	0	0	
18336991910.9828	0	0	-3.33147970982083	-103.616624731995	0	0	0	0	
18374777415.3947	0	0	-3.40519052344806	99.1100941839101	0	0	0	0	
18412562919.8067	0	0	-3.19278125740913	-57.1484214475122	0	0	0	0	
18450348424.2187	0	0	-2.7478451478921	148.893915599867	0	0	0	0	
18488133928.6307	0	0	-2.5490891883337	-5.07069774143952	0	0	0	0	
18525919433.0426	0	0	-2.4777611404048	-159.004094022463	0	0	0	0	
18563704937.4546	0	0	-2.55415121486926	46.7491679151964	0	0	0	0	
18601490441.8666	0	0	-2.72299323030454	-106.430124162152	0	0	0	0	
18639275946.2786	0	0	-2.75548284181086	101.006195637849	0	0	0	0	
18677061450.6905	0	0	-2.83972590321648	-49.6226322031409	0	0	0	0	
18714846955.1025	0	0	-3.03811767683472	160.043088843865	0	0	0	0	
18752632459.5145	0	0	-3.12766479709911	8.20440554534364	0	0	0	0	
18790417963.9265	0	0	-2.98397727990592	-143.780330700708	0	0	0	0	
18828203468.3384	0	0	-2.67469747641841	65.8951042543394	0	0	0	0	
18865988972.7504	0	0	-2.61608473417387	-84.1440776513532	0	0	0	0	
18903774477.1624	0	0	-2.64048482239701	125.655642377643	0	0	0	0	
18941559981.5744	0	0	-2.61954095448447	-24.5905020279501	0	0	0	0	
18979345485.9863	0	0	-2.78384200056517	-173.449095052148	0	0	0	0	
19017130990.3983	0	0	-2.95156458933326	37.275802871071	0	0	0	0	
19054916494.8103	0	0	-3.03978627600216	-111.68773957489	0	0	0	0	
19092701999.2223	0	0	-2.86684262117215	99.6292815819219	0	0	0	0	
19130487503.6342	0	0	-2.84197579187004	-47.574092974276	0	0	0	0	
19168273008.0462	0	0	-2.84046746232162	165.102558324197	0	0	0	0	
19206058512.4582	0	0	-2.87882728269381	17.0056895872894	0	0	0	0	
19243844016.8702	0	0	-2.85059118604753	-130.310230657502	0	0	0	0	
19281629521.2822	0	0	-2.8346182710493	82.5517544729822	0	0	0	0	
19319415025.6941	0	0	-2.97997975338147	-62.4096055130677	0	0	0	0	
19357200530.1061	0	0	-3.15281442337578	151.305624089471	0	0	0	0	
19394986034.5181	0	0	-3.50650224815115	4.45418351588131	0	0	0	0	
19432771538.9301	0	0	-3.16872200757266	-140.740894071658	0	0	0	0	
19470557043.342	0	0	-3.0146156551907	74.4334737952191	0	0	0	0	
19508342547.754	0	0	-3.24143774451627	-68.2053065721967	0	0	0	0	
19546128052.166	0	0	-3.2067852131872	145.06276390683	0	0	0	0	
19583913556.578	0	0	-3.23380672946533	-1.21264407477961	0	0	0	0	
19621699060.9899	0	0	-2.99897770367639	-144.808934165661	0	0	0	0	
19659484565.4019	0	0	-3.00542349495477	69.9328975609351	0	0	0	0	
19697270069.8139	0	0	-3.021208280031	-73.4955864473901	0	0	0	0	
19735055574.2259	0	0	-3.03935104413677	142.348898160427	0	0	0	0	
19772841078.6378	0	0	-3.14231996808124	-1.41516525734675	0	0	0	0	
19810626583.0498	0	0	-3.08549639391859	-145.386221232557	0	0	0	0	
19848412087.4618	0	0	-3.06761857867475	71.4636080198269	0	0	0	0	
19886197591.8738	0	0	-3.03593965765401	-71.555518462651	0	0	0	0	
19923983096.2857	0	0	-3.18375676247166	145.727906036782	0	0	0	0	
19961768600.6977	0	0	-3.13512323925151	2.87949651774136	0	0	0	0	
19999554105.1097	0	0	-3.16490267574435	-139.671324673965	0	0	0	0	
20037339609.5217	0	0	-3.18819812441816	83.9209889027315	0	0	0	0	
20075125113.9336	0	0	-3.34190746006215	-58.3892255500984	0	0	0	0	
20112910618.3456	0	0	-3.61730422945875	159.338011689798	0	0	0	0	
20150696122.7576	0	0	-3.18621612467359	18.06859789382	0	0	0	0	
20188481627.1696	0	0	-3.12946445781259	-121.498592823506	0	0	0	0	
20226267131.5815	0	0	-3.44578934876699	98.7759705534995	0	0	0	0	
20264052635.9935	0	0	-3.48584873552078	-42.5078591779055	0	0	0	0	
20301838140.4055	0	0	-3.33943109633077	175.598565258266	0	0	0	0	
20339623644.8175	0	0	-3.0026015283083	36.8405317499594	0	0	0	0	
20377409149.2295	0	0	-2.96855650133735	-102.630728200888	0	0	0	0	
20415194653.6414	0	0	-3.14261166860677	117.861157262272	0	0	0	0	
20452980158.0534	0	0	-3.08887157610111	-22.5313464654248	0	0	0	0	
20490765662.4654	0	0	-3.12695391477109	-162.059836235798	0	0	0	0	
20528551166.8774	0	0	-3.09128733694169	59.2119641292074	0	0	0	0	
20566336671.2893	0	0	-3.13010601196056	-80.0295834580715	0	0	0	0	
20604122175.7013	0	0	-3.10473823978531	140.760526652293	0	0	0	0	
20641907680.1133	0	0	-3.18266801108853	2.10394862952997	0	0	0	0	
20679693184.5253	0	0	-3.32601993424731	-135.481662822706	0	0	0	0	
20717478688.9372	0	0	-3.4104888722438	85.9562247885431	0	0	0	0	
20755264193.3492	0	0	-3.37309624847913	-53.2552751461485	0	0	0	0	
20793049697.7612	0	0	-3.25302906174653	169.437893706435	0	0	0	0	
20830835202.1732	0	0	-3.35220494168922	32.1174236728424	0	0	0	0	
20868620706.5851	0	0	-3.50304172474338	-105.032822612834	0	0	0	0	
20906406210.9971	0	0	-3.46954711224661	117.251807897151	0	0	0	0	
20944191715.4091	0	0	-3.49432783492091	-19.9960950243519	0	0	0	0	
20981977219.8211	0	0	-3.43016282144118	-155.502297250485	0	0	0	0	
21019762724.233	0	0	-3.4715941013507	67.1853450907631	0	0	0	0	
21057548228.645	0	0	-3.59147137097765	-69.18805656287	0	0	0	0	
21095333733.057	0	0	-3.40852346465089	155.073448472638	0	0	0	0	
21133119237.469	0	0	-3.37185619277549	18.3762008073946	0	0	0	0	
21170904741.8809	0	0	-3.45686241064874	-116.330756304506	0	0	0	0	
21208690246.2929	0	0	-3.3757315954855	106.863599923473	0	0	0	0	
21246475750.7049	0	0	-3.39936211709903	-28.0683076939442	0	0	0	0	
21284261255.1169	0	0	-3.40264600716128	-163.87752887776	0	0	0	0	
21322046759.5288	0	0	-3.57960642421355	61.1571473670893	0	0	0	0	
21359832263.9408	0	0	-3.37940408010309	-72.9957578548575	0	0	0	0	
21397617768.3528	0	0	-3.32636420084475	151.343268336271	0	0	0	0	
21435403272.7648	0	0	-3.56806754651264	16.2696748129077	0	0	0	0	
21473188777.1768	0	0	-3.41948885930558	-119.210455397196	0	0	0	0	
21510974281.5887	0	0	-3.53003596837946	104.713538510257	0	0	0	0	
21548759786.0007	0	0	-3.48919863338144	-29.4815751007552	0	0	0	0	
21586545290.4127	0	0	-3.6215011380677	-165.424362993033	0	0	0	0	
21624330794.8247	0	0	-3.91050922736307	60.3574269758154	0	0	0	0	
21662116299.2366	0	0	-3.66802957553109	-73.8293197842282	0	0	0	0	
21699901803.6486	0	0	-3.7888099836576	150.887384880889	0	0	0	0	
21737687308.0606	0	0	-3.8590013165448	19.4997995380626	0	0	0	0	
21775472812.4726	0	0	-3.77162315761768	-115.816993617715	0	0	0	0	
21813258316.8845	0	0	-3.81619775067534	109.966563125075	0	0	0	0	
21851043821.2965	0	0	-3.59721189222811	-21.4016120634352	0	0	0	0	
21888829325.7085	0	0	-3.62090684591517	-155.835677702945	0	0	0	0	
21926614830.1205	0	0	-3.69618509836152	70.8821675489404	0	0	0	0	
21964400334.5324	0	0	-3.62244873758655	-60.7815936171146	0	0	0	0	
22002185838.9444	0	0	-3.67540804356271	165.155675041065	0	0	0	0	
22039971343.3564	0	0	-3.59592966725828	33.1059347128306	0	0	0	0	
22077756847.7684	0	0	-3.56957889830458	-99.5533800140334	0	0	0	0	
22115542352.1803	0	0	-3.59115641308646	129.438937204393	0	0	0	0	
22153327856.5923	0	0	-3.58564778387772	-3.03966724421696	0	0	0	0	
22191113361.0043	0	0	-3.68205335600556	-135.825645505429	0	0	0	0	
22228898865.4163	0	0	-3.6271742888485	91.5341054854663	0	0	0	0	
22266684369.8282	0	0	-3.68108333689164	-40.7281760496581	0	0	0	0	
22304469874.2402	0	0	-3.7578501826936	-168.724903713085	0	0	0	0	
22342255378.6522	0	0	-3.98423808105796	57.9120398403063	0	0	0	0	
22380040883.0642	0	0	-3.91650445846315	-74.6444755280924	0	0	0	0	
22417826387.4761	0	0	-3.75308255372684	158.562517798782	0	0	0	0	
22455611891.8881	0	0	-3.93005173293743	26.7929583035824	0	0	0	0	
22493397396.3001	0	0	-3.95753435501071	-105.779081388657	0	0	0	0	
22531182900.7121	0	0	-3.62156636591905	125.23741114691	0	0	0	0	
22568968405.1241	0	0	-3.54779869091149	-5.16289755821622	0	0	0	0	
22606753909.536	0	0	-3.83279570206826	-136.445036304457	0	0	0	0	
22644539413.948	0	0	-3.55092297880556	92.0356876546269	0	0	0	0	
22682324918.36	0	0	-3.51669498534851	-39.2822602054685	0	0	0	0	
22720110422.772	0	0	-3.43535663922923	-168.003189654512	0	0	0	0	
22757895927.1839	0	0	-3.39450004822519	60.8691302242278	0	0	0	0	
22795681431.5959	0	0	-3.54682224529921	-69.3000555059203	0	0	0	0	
22833466936.0079	0	0	-3.43226526236548	159.001460207103	0	0	0	0	
22871252440.4199	0	0	-3.63209617631244	28.292155287463	0	0	0	0	
22909037944.8318	0	0	-3.47905998714276	-101.278039090331	0	0	0	0	
22946823449.2438	0	0	-3.48163404223415	128.198965575287	0	0	0	0	
22984608953.6558	0	0	-3.86624152247703	0.547811468054874	0	0	0	0	
23022394458.0678	0	0	-3.8272672111465	-131.152072429501	0	0	0	0	
23060179962.4797	0	0	-3.89661089628932	98.5230496492701	0	0	0	0	
23097965466.8917	0	0	-3.76114755458527	-26.5073373332803	0	0	0	0	
23135750971.3037	0	0	-3.96261162574498	-156.072004685642	0	0	0	0	
23173536475.7157	0	0	-4.02748334843797	74.5067966631251	0	0	0	0	
23211321980.1276	0	0	-3.54245019047388	-52.7919975164977	0	0	0	0	
23249107484.5396	0	0	-3.59015772316259	178.622522591771	0	0	0	0	
23286892988.9516	0	0	-3.83020700623491	48.2634543830964	0	0	0	0	
23324678493.3636	0	0	-3.25299568794265	-79.8093457658463	0	0	0	0	
23362463997.7755	0	0	-3.30824921830447	151.808298700306	0	0	0	0	
23400249502.1875	0	0	-3.51918271538325	23.5036403370488	0	0	0	0	
23438035006.5995	0	0	-3.41523757730713	-104.669738971641	0	0	0	0	
23475820511.0115	0	0	-3.31889436323373	124.516051376283	0	0	0	0	
23513606015.4234	0	0	-3.2595219642919	-3.93540363121286	0	0	0	0	
23551391519.8354	0	0	-3.38482617869972	-130.932519325663	0	0	0	0	
23589177024.2474	0	0	-3.29519288428525	100.367695583204	0	0	0	0	
23626962528.6594	0	0	-3.52018769391622	-27.1381579799051	0	0	0	0	
23664748033.0714	0	0	-3.62942697216958	-154.738295395477	0	0	0	0	
23702533537.4833	0	0	-3.44462378929299	77.639242921154	0	0	0	0	
23740319041.8953	0	0	-3.47328829451113	-50.423016714559	0	0	0	0	
23778104546.3073	0	0	-3.94748408497734	-175.475459140387	0	0	0	0	
23815890050.7193	0	0	-3.70318567082974	54.9221614066999	0	0	0	0	
23853675555.1312	0	0	-3.6385606997912	-72.341111882682	0	0	0	0	
23891461059.5432	0	0	-3.76204563774674	164.822342517202	0	0	0	0	
23929246563.9552	0	0	-3.96847641652981	34.75325231221	0	0	0	0	
