!Agilent N9918A: A.07.57
!Date: Thursday, 05 September 2019 10:43:11
!Timezone: (GMT-08:00) Pacific Time (US & Canada)
!Model: N9918A
!Serial: MY53103598
!GPS Latitude: 
!GPS Longitude: 
!GPS TimeStamp: 0001-01-01 00:00:00Z
!GPS Seconds Since Last Read: 0
!CHECKSUM:1005879470
!Correction: S11()S21(Rdy)S12()S22()
!S2P File: Measurements:S11,S21,S12,S22:
# Hz S DB R 50
16000000000	0	0	-4.46749293492322	31.24945092756	0	0	0	0	
16052500000	0	0	-4.22491492575719	-93.0131809382152	0	0	0	0	
16105000000	0	0	-5.60004472807449	150.414441502574	0	0	0	0	
16157500000	0	0	-4.41408065623944	37.1565369752708	0	0	0	0	
16210000000	0	0	-3.98351844098578	-82.950604931529	0	0	0	0	
16262500000	0	0	-4.76245716527672	156.495652814021	0	0	0	0	
16315000000	0	0	-4.84013050934013	51.7015400510535	0	0	0	0	
16367500000	0	0	-5.24506247979929	-68.3144682640821	0	0	0	0	
16420000000	0	0	-4.36089774466717	-174.093308574396	0	0	0	0	
16472500000	0	0	-7.28836691754897	72.3092540756915	0	0	0	0	
16525000000	0	0	-5.53222261827226	-18.2938259091264	0	0	0	0	
16577500000	0	0	-5.36961139216512	-143.504191350103	0	0	0	0	
16630000000	0	0	-7.97596480260165	116.305351142986	0	0	0	0	
16682500000	0	0	-5.14994770938293	9.62841021818672	0	0	0	0	
16735000000	0	0	-5.09859413687916	-86.8366331644868	0	0	0	0	
16787500000	0	0	-4.49988725629185	157.325575644514	0	0	0	0	
16840000000	0	0	-5.05259809828255	58.4242148898427	0	0	0	0	
16892500000	0	0	-4.25670320278597	-46.0797185843442	0	0	0	0	
16945000000	0	0	-4.45085503976331	-157.414791323263	0	0	0	0	
16997500000	0	0	-5.99342225301795	102.791067113152	0	0	0	0	
17050000000	0	0	-4.79434496905	8.39617020349258	0	0	0	0	
17102500000	0	0	-6.34689460889051	-103.383907118647	0	0	0	0	
17155000000	0	0	-6.18831538540681	174.825412582245	0	0	0	0	
17207500000	0	0	-4.8316021251751	65.420718175074	0	0	0	0	
17260000000	0	0	-5.18093542591021	-29.4719667481638	0	0	0	0	
17312500000	0	0	-4.57948729456882	-134.874376692413	0	0	0	0	
17365000000	0	0	-5.45383730777385	128.806030185511	0	0	0	0	
17417500000	0	0	-4.37830080491928	31.4394993115437	0	0	0	0	
17470000000	0	0	-5.22394730004201	-71.8701327198414	0	0	0	0	
17522500000	0	0	-5.28856045718246	-164.673750409083	0	0	0	0	
17575000000	0	0	-4.58176517970116	98.4951806200662	0	0	0	0	
17627500000	0	0	-4.81111882001693	-6.39051564703753	0	0	0	0	
17680000000	0	0	-5.77586936089518	-99.2096998078871	0	0	0	0	
17732500000	0	0	-5.18980264686857	171.199132088771	0	0	0	0	
17785000000	0	0	-4.9337504732692	66.4179767427769	0	0	0	0	
17837500000	0	0	-5.78566788763931	-20.753302279819	0	0	0	0	
17890000000	0	0	-4.78479862830151	-118.135462582796	0	0	0	0	
17942500000	0	0	-4.64673488162051	148.614951541071	0	0	0	0	
17995000000	0	0	-4.75197713639106	48.4624290225466	0	0	0	0	
18047500000	0	0	-4.94643333909553	-41.884082564046	0	0	0	0	
18100000000	0	0	-4.53118376337806	-135.969389266433	0	0	0	0	
18152500000	0	0	-4.39061867607495	127.35242967639	0	0	0	0	
18205000000	0	0	-4.62326295547487	29.6319842160419	0	0	0	0	
18257500000	0	0	-6.07876952500317	-59.1412949153349	0	0	0	0	
18310000000	0	0	-4.9885666755673	-144.711055278251	0	0	0	0	
18362500000	0	0	-4.87984245075682	115.951231042316	0	0	0	0	
18415000000	0	0	-5.03372251063823	24.1933820115537	0	0	0	0	
18467500000	0	0	-4.62276484176682	-65.366714340125	0	0	0	0	
18520000000	0	0	-5.16655728644267	-162.960310401047	0	0	0	0	
18572500000	0	0	-4.82647688559681	112.994338051949	0	0	0	0	
18625000000	0	0	-4.89716378106024	16.5190541515876	0	0	0	0	
18677500000	0	0	-4.68206053125372	-69.7415026930509	0	0	0	0	
18730000000	0	0	-4.31926944385066	-165.221411762207	0	0	0	0	
18782500000	0	0	-4.61961257528259	102.048390464629	0	0	0	0	
18835000000	0	0	-4.54507260637523	10.5101476849047	0	0	0	0	
18887500000	0	0	-5.3027855344895	-80.9165195528286	0	0	0	0	
18940000000	0	0	-4.69192261931212	-169.081638145441	0	0	0	0	
18992500000	0	0	-5.6680823999301	96.7504842992645	0	0	0	0	
19045000000	0	0	-5.08019891188355	13.573725340076	0	0	0	0	
19097500000	0	0	-4.78569797083823	-82.2830528022646	0	0	0	0	
19150000000	0	0	-4.90942223707839	-172.380693928958	0	0	0	0	
19202500000	0	0	-4.78679136424695	101.298388220218	0	0	0	0	
19255000000	0	0	-4.74602326762723	8.75147078933908	0	0	0	0	
19307500000	0	0	-5.06904529685317	-74.9757930882189	0	0	0	0	
19360000000	0	0	-4.61162148911133	-165.571835802522	0	0	0	0	
19412500000	0	0	-4.67302406907279	107.635676283588	0	0	0	0	
19465000000	0	0	-4.50810536486901	17.5936428999397	0	0	0	0	
19517500000	0	0	-4.64674820756032	-70.550885766152	0	0	0	0	
19570000000	0	0	-4.71384492382029	-157.746048356588	0	0	0	0	
19622500000	0	0	-4.8676685485145	113.565154947941	0	0	0	0	
19675000000	0	0	-5.32570841596586	29.9762723166553	0	0	0	0	
19727500000	0	0	-4.98749000072724	-59.470300654208	0	0	0	0	
19780000000	0	0	-5.47200816073613	-144.450439229824	0	0	0	0	
19832500000	0	0	-4.96597921797129	127.122422245476	0	0	0	0	
19885000000	0	0	-5.02840458887493	38.5393738238335	0	0	0	0	
19937500000	0	0	-5.1021511985255	-49.5588261670373	0	0	0	0	
19990000000	0	0	-5.00061458929147	-137.435127885684	0	0	0	0	
20042500000	0	0	-5.11602595954785	137.05425833723	0	0	0	0	
20095000000	0	0	-4.87806914744811	50.1419452800261	0	0	0	0	
20147500000	0	0	-5.42813122105732	-36.6751437776857	0	0	0	0	
20200000000	0	0	-5.39220688953165	-120.728208528353	0	0	0	0	
20252500000	0	0	-5.29972573241446	149.728970001988	0	0	0	0	
20305000000	0	0	-5.25818876411272	64.0541217103871	0	0	0	0	
20357500000	0	0	-5.35729706813951	-20.7991461808713	0	0	0	0	
20410000000	0	0	-5.41252537327264	-110.854095815511	0	0	0	0	
20462500000	0	0	-6.18153624403535	169.27647417444	0	0	0	0	
20515000000	0	0	-5.18086229573186	84.4396757818399	0	0	0	0	
20567500000	0	0	-5.35640210911647	-3.08538374940667	0	0	0	0	
20620000000	0	0	-5.19401338421172	-87.8943568689083	0	0	0	0	
20672500000	0	0	-5.113129411137	-174.373770740033	0	0	0	0	
20725000000	0	0	-5.2709845050703	97.1950425538028	0	0	0	0	
20777500000	0	0	-5.37164314265897	11.865303130149	0	0	0	0	
20830000000	0	0	-5.52549613657014	-71.8158836560455	0	0	0	0	
20882500000	0	0	-5.40016311475644	-157.039843835334	0	0	0	0	
20935000000	0	0	-5.82055706497283	116.862249003326	0	0	0	0	
20987500000	0	0	-5.77822429579528	35.2326322993138	0	0	0	0	
21040000000	0	0	-5.53651572666219	-50.2058682599632	0	0	0	0	
21092500000	0	0	-5.57479390142176	-137.152872097083	0	0	0	0	
21145000000	0	0	-6.04815113229299	139.806081378363	0	0	0	0	
21197500000	0	0	-5.5840914715018	57.2411156744662	0	0	0	0	
21250000000	0	0	-5.82329085003033	-27.7306372216557	0	0	0	0	
21302500000	0	0	-5.60065526375874	-110.023763114294	0	0	0	0	
21355000000	0	0	-5.46301365312801	166.613396597739	0	0	0	0	
21407500000	0	0	-5.44308829143746	84.0246139910992	0	0	0	0	
21460000000	0	0	-5.44069209897097	1.08302738827131	0	0	0	0	
21512500000	0	0	-5.5487320645119	-80.5386152444439	0	0	0	0	
21565000000	0	0	-5.46598284280936	-163.626153305435	0	0	0	0	
21617500000	0	0	-5.81789509048028	107.378401881461	0	0	0	0	
21670000000	0	0	-6.29835591956196	23.3320736682395	0	0	0	0	
21722500000	0	0	-5.89623551307178	-64.971055296944	0	0	0	0	
21775000000	0	0	-6.11787624269785	-153.650832817204	0	0	0	0	
21827500000	0	0	-6.20415655196179	119.247451033897	0	0	0	0	
21880000000	0	0	-6.00284845621769	36.8580075547682	0	0	0	0	
21932500000	0	0	-5.82286026402456	-50.5407885068421	0	0	0	0	
21985000000	0	0	-5.93389674661482	-127.491801666375	0	0	0	0	
22037500000	0	0	-5.680044365271	152.190638961742	0	0	0	0	
22090000000	0	0	-5.65667681457505	69.7688643083602	0	0	0	0	
22142500000	0	0	-5.74534532077604	-13.1694161184725	0	0	0	0	
22195000000	0	0	-5.97529256169161	-95.2325445557625	0	0	0	0	
22247500000	0	0	-5.74489678811134	-176.426893739119	0	0	0	0	
22300000000	0	0	-6.06061722347825	96.0628480761739	0	0	0	0	
22352500000	0	0	-7.01017092063254	18.3992651202429	0	0	0	0	
22405000000	0	0	-6.35740718629783	-59.6835520645255	0	0	0	0	
22457500000	0	0	-6.03593018471977	-147.675045830974	0	0	0	0	
22510000000	0	0	-6.82657863711857	132.168991821515	0	0	0	0	
22562500000	0	0	-6.36199788835411	55.2345934741508	0	0	0	0	
22615000000	0	0	-5.81261740847526	-31.0049726122948	0	0	0	0	
22667500000	0	0	-6.37474072354888	-113.898116335739	0	0	0	0	
22720000000	0	0	-5.84345250380263	166.446890516163	0	0	0	0	
22772500000	0	0	-5.58126569057775	81.503896199353	0	0	0	0	
22825000000	0	0	-5.51189743932272	-2.7683864970559	0	0	0	0	
22877500000	0	0	-5.79242498700827	-87.0637446977657	0	0	0	0	
22930000000	0	0	-6.14899815801871	-168.442513118323	0	0	0	0	
22982500000	0	0	-5.75502257263166	108.574330253718	0	0	0	0	
23035000000	0	0	-6.60143429009767	23.4460198760914	0	0	0	0	
23087500000	0	0	-7.1636651352363	-52.2147416141394	0	0	0	0	
23140000000	0	0	-6.18933504731584	-133.598270555619	0	0	0	0	
23192500000	0	0	-6.49075117166006	141.864363960985	0	0	0	0	
23245000000	0	0	-7.04428802839819	65.6753018167055	0	0	0	0	
23297500000	0	0	-5.86533420924747	-11.1453041855025	0	0	0	0	
23350000000	0	0	-5.69617170437712	-97.5698631399314	0	0	0	0	
23402500000	0	0	-5.81855189345235	-177.903175695213	0	0	0	0	
23455000000	0	0	-5.16065868728644	98.8852073253733	0	0	0	0	
23507500000	0	0	-5.19018275495525	13.7265200549038	0	0	0	0	
23560000000	0	0	-5.44636068259126	-69.0180688085716	0	0	0	0	
23612500000	0	0	-5.9661157818507	-150.037972781023	0	0	0	0	
23665000000	0	0	-6.20507728855946	129.905757134659	0	0	0	0	
23717500000	0	0	-6.40732271788866	47.3880774720207	0	0	0	0	
23770000000	0	0	-6.65648991287616	-29.051734434778	0	0	0	0	
23822500000	0	0	-6.52307560446432	-107.685565695576	0	0	0	0	
23875000000	0	0	-6.16286263605318	171.090862271454	0	0	0	0	
23927500000	0	0	-6.45573942001559	89.3010240477208	0	0	0	0	
23980000000	0	0	-6.06727446301651	11.4579137351967	0	0	0	0	
24032500000	0	0	-5.8962344727048	-71.1480436906197	0	0	0	0	
24085000000	0	0	-5.73382776618543	-152.395560690173	0	0	0	0	
24137500000	0	0	-5.86175754842328	125.965648303158	0	0	0	0	
24190000000	0	0	-5.71092321640648	41.9723606196458	0	0	0	0	
24242500000	0	0	-5.56111380387174	-39.3614736250798	0	0	0	0	
24295000000	0	0	-5.90347020229406	-122.466559114618	0	0	0	0	
24347500000	0	0	-6.38898481044593	158.274291496076	0	0	0	0	
24400000000	0	0	-6.09646656399525	78.361814321407	0	0	0	0	
24452500000	0	0	-6.52486189993221	-4.4715935779295	0	0	0	0	
24505000000	0	0	-6.79017427940075	-79.4526710666972	0	0	0	0	
24557500000	0	0	-6.44133362177891	-157.769555441249	0	0	0	0	
24610000000	0	0	-6.49911811053442	119.224113746767	0	0	0	0	
24662500000	0	0	-6.73140069055125	39.8034130152778	0	0	0	0	
24715000000	0	0	-6.08122750663556	-38.9440409409671	0	0	0	0	
24767500000	0	0	-5.96811022861165	-123.379699960706	0	0	0	0	
24820000000	0	0	-6.10450570068203	152.805712983361	0	0	0	0	
24872500000	0	0	-6.2241262985231	72.6320021056339	0	0	0	0	
24925000000	0	0	-6.27181376766704	-8.11220484937651	0	0	0	0	
24977500000	0	0	-6.48560001386221	-89.0109746273329	0	0	0	0	
25030000000	0	0	-6.59372159149727	-166.342882642087	0	0	0	0	
25082500000	0	0	-6.85624119321018	119.164583749344	0	0	0	0	
25135000000	0	0	-6.50766228093385	37.7993727014914	0	0	0	0	
25187500000	0	0	-7.09588355438081	-41.9357632187967	0	0	0	0	
25240000000	0	0	-6.42937952632038	-121.373867276508	0	0	0	0	
25292500000	0	0	-6.27398762910373	155.429235279661	0	0	0	0	
25345000000	0	0	-6.22999815742273	71.8433362036354	0	0	0	0	
25397500000	0	0	-6.35304381572179	-3.86295733318401	0	0	0	0	
25450000000	0	0	-6.10985849846756	-79.9388334701801	0	0	0	0	
25502500000	0	0	-6.12710624209584	-158.470747375631	0	0	0	0	
25555000000	0	0	-6.25471765594193	119.919751268347	0	0	0	0	
25607500000	0	0	-6.43252140096722	42.1221597276485	0	0	0	0	
25660000000	0	0	-6.45909221488146	-40.2862939537058	0	0	0	0	
25712500000	0	0	-6.58836312990791	-121.990819836899	0	0	0	0	
25765000000	0	0	-6.94374336683886	155.517259842608	0	0	0	0	
25817500000	0	0	-6.95558063435707	79.9979857589404	0	0	0	0	
25870000000	0	0	-6.82752392669228	-0.156600608450831	0	0	0	0	
25922500000	0	0	-7.09788901740423	-78.7465534479169	0	0	0	0	
25975000000	0	0	-6.63693864628837	-157.424486225579	0	0	0	0	
26027500000	0	0	-6.44317852136771	120.738944462853	0	0	0	0	
26080000000	0	0	-6.38606556593876	41.0465089088757	0	0	0	0	
26132500000	0	0	-6.35458808138282	-40.4656998895238	0	0	0	0	
26185000000	0	0	-6.30339038978227	-121.837405277304	0	0	0	0	
26237500000	0	0	-6.56319186150442	157.829277202058	0	0	0	0	
26290000000	0	0	-6.91973774713934	78.2280882193018	0	0	0	0	
26342500000	0	0	-7.11211862826901	1.30879890350513	0	0	0	0	
26395000000	0	0	-7.19333881298434	-79.809251301069	0	0	0	0	
26447500000	0	0	-7.32628999524786	-160.296942222211	0	0	0	0	
26500000000	0	0	-7.90700035834936	123.196374769153	0	0	0	0	
