!Agilent N9918A: A.07.57
!Date: Wednesday, 05 August 2020 17:34:18
!Timezone: (GMT-08:00) Pacific Time (US & Canada)
!Model: N9918A
!Serial: MY53103598
!GPS Latitude: 
!GPS Longitude: 
!GPS TimeStamp: 0001-01-01 00:00:00Z
!GPS Seconds Since Last Read: 0
!CHECKSUM:0372644096
!Correction: S11()S21(Rdy)S12()S22()
!S2P File: Measurements:S11,S21,S12,S22:
# Hz S DB R 50
18000000000	0	0	29.5017323293861	-106.871633188489	0	0	0	0	
18010000000	0	0	29.3709144247537	-138.55946927836	0	0	0	0	
18020000000	0	0	29.5593547876801	-169.29558363473	0	0	0	0	
18030000000	0	0	29.4862828042224	160.281664348651	0	0	0	0	
18040000000	0	0	29.4718316288422	129.696974128672	0	0	0	0	
18050000000	0	0	29.6079179692288	98.8143616576469	0	0	0	0	
18060000000	0	0	29.7730494903086	66.5904717850663	0	0	0	0	
18070000000	0	0	29.8529115305861	34.7732951731379	0	0	0	0	
18080000000	0	0	29.9990925090739	2.61762372933739	0	0	0	0	
18090000000	0	0	29.9377268580989	-30.0670866845286	0	0	0	0	
18100000000	0	0	29.8176510366205	-61.9687380697609	0	0	0	0	
18110000000	0	0	29.7630168153759	-92.9996361026712	0	0	0	0	
18120000000	0	0	29.6684723027703	-124.310146564102	0	0	0	0	
18130000000	0	0	29.5690964262204	-154.045154414641	0	0	0	0	
18140000000	0	0	29.5650182777831	174.533479216631	0	0	0	0	
18150000000	0	0	29.6823598353483	143.771420252218	0	0	0	0	
18160000000	0	0	29.7955139365251	113.573293429535	0	0	0	0	
18170000000	0	0	30.0541081019026	81.2857638788529	0	0	0	0	
18180000000	0	0	30.19008377344	49.164649870521	0	0	0	0	
18190000000	0	0	30.2595768980707	16.6069786400043	0	0	0	0	
18200000000	0	0	30.0941487271339	-16.7275824246143	0	0	0	0	
18210000000	0	0	29.8347559938464	-48.8301603296217	0	0	0	0	
18220000000	0	0	29.7647503355988	-80.8484201554354	0	0	0	0	
18230000000	0	0	29.599771232784	-110.606016872752	0	0	0	0	
18240000000	0	0	29.4674074640186	-141.158885076612	0	0	0	0	
18250000000	0	0	29.588151156674	-171.320270723018	0	0	0	0	
18260000000	0	0	29.6342514517043	158.577006274532	0	0	0	0	
18270000000	0	0	29.9099574345876	127.340433309917	0	0	0	0	
18280000000	0	0	30.1224042033119	95.8986248177103	0	0	0	0	
18290000000	0	0	30.3698865387572	61.4201347763635	0	0	0	0	
18300000000	0	0	30.20247324445	29.8212091937366	0	0	0	0	
18310000000	0	0	30.0816591431095	-3.35792264946947	0	0	0	0	
18320000000	0	0	29.8628109328917	-35.4846350946589	0	0	0	0	
18330000000	0	0	29.6837259659078	-67.01155295709	0	0	0	0	
18340000000	0	0	29.4551826507479	-96.748710318937	0	0	0	0	
18350000000	0	0	29.561804052285	-127.13242274942	0	0	0	0	
18360000000	0	0	29.4866349147023	-157.71025433081	0	0	0	0	
18370000000	0	0	29.636619718557	172.760945658368	0	0	0	0	
18380000000	0	0	29.8367603743536	140.978808017	0	0	0	0	
18390000000	0	0	30.1155760799982	108.815468867873	0	0	0	0	
18400000000	0	0	30.0766364467792	75.728444006915	0	0	0	0	
18410000000	0	0	30.2399116259707	42.9344957889463	0	0	0	0	
18420000000	0	0	30.0425305469302	9.70950934684327	0	0	0	0	
18430000000	0	0	29.7418999147824	-21.0007765153597	0	0	0	0	
18440000000	0	0	29.5735872310252	-52.3684166005154	0	0	0	0	
18450000000	0	0	29.4281058146702	-83.0821530846463	0	0	0	0	
18460000000	0	0	29.3904021824134	-112.534117920015	0	0	0	0	
18470000000	0	0	29.646382563477	-142.902744712068	0	0	0	0	
18480000000	0	0	29.6947002904305	-173.248272128594	0	0	0	0	
18490000000	0	0	29.9059721142752	153.680827139151	0	0	0	0	
18500000000	0	0	30.0628725227668	120.97265745326	0	0	0	0	
18510000000	0	0	30.080664800883	89.2652029375667	0	0	0	0	
18520000000	0	0	29.9939636099696	56.2054688048544	0	0	0	0	
18530000000	0	0	29.7774119816144	25.4962562674607	0	0	0	0	
18540000000	0	0	29.5478757348459	-7.31717312723975	0	0	0	0	
18550000000	0	0	29.4083064381192	-37.0596037530277	0	0	0	0	
18560000000	0	0	29.3275440263027	-66.1277992541702	0	0	0	0	
18570000000	0	0	29.3406793655226	-96.0707751751447	0	0	0	0	
18580000000	0	0	29.4161856550696	-126.706658128289	0	0	0	0	
18590000000	0	0	29.7754608487059	-158.311426790124	0	0	0	0	
18600000000	0	0	29.6805653597508	169.431661214499	0	0	0	0	
18610000000	0	0	30.0321043727955	137.520980875335	0	0	0	0	
18620000000	0	0	29.8848482887289	105.124634085714	0	0	0	0	
18630000000	0	0	29.9586668332236	72.3638753615666	0	0	0	0	
18640000000	0	0	29.6454701971457	40.6996208461841	0	0	0	0	
18650000000	0	0	29.5684160528947	10.5599174643911	0	0	0	0	
18660000000	0	0	29.5072939098906	-20.1475731901596	0	0	0	0	
18670000000	0	0	29.3633654059686	-50.2002844483048	0	0	0	0	
18680000000	0	0	29.4320871428734	-80.8756697014575	0	0	0	0	
18690000000	0	0	29.6962977920284	-112.525162748433	0	0	0	0	
18700000000	0	0	29.852780098484	-143.459535069731	0	0	0	0	
18710000000	0	0	30.0140230541063	-175.488425578006	0	0	0	0	
18720000000	0	0	30.0054094320389	152.706355498903	0	0	0	0	
18730000000	0	0	29.9183278394929	119.500039644662	0	0	0	0	
18740000000	0	0	29.6858801603756	86.949448684712	0	0	0	0	
18750000000	0	0	29.6972164934201	55.8019257451396	0	0	0	0	
18760000000	0	0	29.6087865462987	25.3080344830674	0	0	0	0	
18770000000	0	0	29.5083866389912	-5.05695203930033	0	0	0	0	
18780000000	0	0	29.48903569826	-36.2121247425521	0	0	0	0	
18790000000	0	0	29.580440702607	-67.4184512621927	0	0	0	0	
18800000000	0	0	29.8240882993344	-97.829785149894	0	0	0	0	
18810000000	0	0	29.9322610954963	-129.917860260608	0	0	0	0	
18820000000	0	0	30.0843473963785	-162.445913276848	0	0	0	0	
18830000000	0	0	30.1047978209135	165.275242050374	0	0	0	0	
18840000000	0	0	29.8739779856846	133.768070291604	0	0	0	0	
18850000000	0	0	29.866017764319	101.325137075341	0	0	0	0	
18860000000	0	0	29.5933829430572	70.2908129087355	0	0	0	0	
18870000000	0	0	29.7937526119482	40.0784456082826	0	0	0	0	
18880000000	0	0	29.6755163205376	8.96420885088516	0	0	0	0	
18890000000	0	0	29.7372297640415	-22.2072980737703	0	0	0	0	
18900000000	0	0	29.8345428083372	-54.3514521509093	0	0	0	0	
18910000000	0	0	29.9141108256677	-86.3130089039298	0	0	0	0	
18920000000	0	0	29.9505517562987	-117.620306692608	0	0	0	0	
18930000000	0	0	30.0204328276247	-149.702824451019	0	0	0	0	
18940000000	0	0	29.9217474588229	178.115617194776	0	0	0	0	
18950000000	0	0	29.7917405473342	145.808252200848	0	0	0	0	
18960000000	0	0	29.6741591816796	115.105126092003	0	0	0	0	
18970000000	0	0	29.6856093704879	84.0268869155835	0	0	0	0	
18980000000	0	0	29.7326972279673	52.2278798214851	0	0	0	0	
18990000000	0	0	29.7627315029116	21.0736712227233	0	0	0	0	
19000000000	0	0	29.9006920626033	-10.6153298726417	0	0	0	0	
19010000000	0	0	29.8953734246622	-42.5371185210736	0	0	0	0	
19020000000	0	0	29.9083693518581	-74.4241553339355	0	0	0	0	
19030000000	0	0	29.8957781163983	-106.742721220364	0	0	0	0	
19040000000	0	0	29.8108768997925	-139.402566212754	0	0	0	0	
19050000000	0	0	29.7153143774596	-170.228206725088	0	0	0	0	
19060000000	0	0	29.6518664237386	158.468188094347	0	0	0	0	
19070000000	0	0	29.6724094912189	127.385635856927	0	0	0	0	
19080000000	0	0	29.6567185238714	96.4455673910491	0	0	0	0	
19090000000	0	0	29.7404190556466	64.6844037211054	0	0	0	0	
19100000000	0	0	29.8278776741673	32.228089397269	0	0	0	0	
19110000000	0	0	29.849066688407	0.0931053673100489	0	0	0	0	
19120000000	0	0	29.9172776890648	-31.6575106537279	0	0	0	0	
19130000000	0	0	29.7922886610103	-63.9392045932289	0	0	0	0	
19140000000	0	0	29.5977250281219	-95.6489885251416	0	0	0	0	
19150000000	0	0	29.5000088978009	-126.515019105294	0	0	0	0	
19160000000	0	0	29.4796149228897	-157.936869437992	0	0	0	0	
19170000000	0	0	29.3873642409771	171.919807199336	0	0	0	0	
19180000000	0	0	29.5208247921556	141.889780072111	0	0	0	0	
19190000000	0	0	29.5284950271726	111.544430107653	0	0	0	0	
19200000000	0	0	29.7453256929929	79.4704456837951	0	0	0	0	
19210000000	0	0	29.8560191480339	47.598909359818	0	0	0	0	
19220000000	0	0	29.8964125219945	15.4131108146799	0	0	0	0	
19230000000	0	0	29.7931223750154	-17.3340960533533	0	0	0	0	
19240000000	0	0	29.6940303974284	-48.3810738998678	0	0	0	0	
19250000000	0	0	29.4878307442616	-79.523777840349	0	0	0	0	
19260000000	0	0	29.3679593656321	-110.29363791142	0	0	0	0	
19270000000	0	0	29.1496677724511	-140.395072596827	0	0	0	0	
19280000000	0	0	29.1834460668642	-169.924951864043	0	0	0	0	
19290000000	0	0	29.3555749336848	160.125580387646	0	0	0	0	
19300000000	0	0	29.531207877049	129.210971658487	0	0	0	0	
19310000000	0	0	29.6745225945146	97.6912996942038	0	0	0	0	
19320000000	0	0	29.8902775873072	64.8705089797772	0	0	0	0	
19330000000	0	0	29.928354213574	32.8943173015032	0	0	0	0	
19340000000	0	0	29.695483705451	0.551437283043817	0	0	0	0	
19350000000	0	0	29.5388058852999	-31.6489153556699	0	0	0	0	
19360000000	0	0	29.4230609672906	-62.8053174836741	0	0	0	0	
19370000000	0	0	29.1529724364971	-93.6894927001096	0	0	0	0	
19380000000	0	0	29.1837309387154	-123.058350512934	0	0	0	0	
19390000000	0	0	29.2188308877681	-152.455284374717	0	0	0	0	
19400000000	0	0	29.2869441274482	177.593558423996	0	0	0	0	
19410000000	0	0	29.612874374144	146.077338835675	0	0	0	0	
19420000000	0	0	29.7331584616417	114.863621348156	0	0	0	0	
19430000000	0	0	29.8423306434899	83.0562930083538	0	0	0	0	
19440000000	0	0	29.9102817211632	49.5944627828729	0	0	0	0	
19450000000	0	0	29.7165206587716	17.1270861511917	0	0	0	0	
19460000000	0	0	29.5349181990406	-14.8884821151548	0	0	0	0	
19470000000	0	0	29.3446054797898	-45.4199761514262	0	0	0	0	
19480000000	0	0	29.1908339724237	-76.19476544753	0	0	0	0	
19490000000	0	0	29.2181173365021	-106.328267163068	0	0	0	0	
19500000000	0	0	29.1900001712736	-136.008819882071	0	0	0	0	
19510000000	0	0	29.3919601694379	-165.68967238678	0	0	0	0	
19520000000	0	0	29.544769576919	162.421405294638	0	0	0	0	
19530000000	0	0	29.8148131478643	131.023758479069	0	0	0	0	
19540000000	0	0	29.8769992803202	98.9602586076185	0	0	0	0	
19550000000	0	0	29.8481648797042	66.185627332139	0	0	0	0	
19560000000	0	0	29.6122070752319	34.6938639281636	0	0	0	0	
19570000000	0	0	29.5816124295853	3.46204791458203	0	0	0	0	
19580000000	0	0	29.4658549625789	-27.2868804338064	0	0	0	0	
19590000000	0	0	29.2982410545119	-58.5627422625887	0	0	0	0	
19600000000	0	0	29.158067716219	-88.6917671575695	0	0	0	0	
19610000000	0	0	29.1842399438162	-118.414794391319	0	0	0	0	
19620000000	0	0	29.3445606763014	-149.548141816742	0	0	0	0	
19630000000	0	0	29.5483312531693	179.560155960815	0	0	0	0	
19640000000	0	0	29.7365661307956	148.540550674681	0	0	0	0	
19650000000	0	0	29.6863238942058	116.732040282612	0	0	0	0	
19660000000	0	0	29.5716493178973	84.542931719148	0	0	0	0	
19670000000	0	0	29.5878210003019	53.7048562949239	0	0	0	0	
19680000000	0	0	29.4577251049671	21.5816661384183	0	0	0	0	
19690000000	0	0	29.2615238294188	-9.1266064253232	0	0	0	0	
19700000000	0	0	29.2569307416827	-39.8975944332611	0	0	0	0	
19710000000	0	0	29.185897341467	-71.1652773197363	0	0	0	0	
19720000000	0	0	29.3441072179596	-102.218022760327	0	0	0	0	
19730000000	0	0	29.4434036225315	-133.406480102805	0	0	0	0	
19740000000	0	0	29.2328536422877	-165.818187855828	0	0	0	0	
19750000000	0	0	29.3631190270169	162.573927673672	0	0	0	0	
19760000000	0	0	29.4500172020097	131.059317932534	0	0	0	0	
19770000000	0	0	29.4107324174848	100.118508301866	0	0	0	0	
19780000000	0	0	29.3562326360353	68.7269409622463	0	0	0	0	
19790000000	0	0	29.2901287198479	38.1576756945217	0	0	0	0	
19800000000	0	0	29.2266691736069	6.94906414748183	0	0	0	0	
19810000000	0	0	29.1767311686191	-24.61598232419	0	0	0	0	
19820000000	0	0	29.2425742453764	-56.1553020497617	0	0	0	0	
19830000000	0	0	29.4017430046968	-88.7524757195283	0	0	0	0	
19840000000	0	0	29.3084420946298	-119.881672755865	0	0	0	0	
19850000000	0	0	29.3241115759691	-152.177765045375	0	0	0	0	
19860000000	0	0	29.1034472300104	176.384944838149	0	0	0	0	
19870000000	0	0	29.1306697876722	144.989268781155	0	0	0	0	
19880000000	0	0	28.9635651620575	114.473435397246	0	0	0	0	
19890000000	0	0	28.9688336279645	84.1836264770897	0	0	0	0	
19900000000	0	0	29.0743302671167	52.5649918695875	0	0	0	0	
19910000000	0	0	29.1352463792493	21.5386162382726	0	0	0	0	
19920000000	0	0	29.2533528777569	-9.48282605030321	0	0	0	0	
19930000000	0	0	29.3275825954374	-41.7630385379223	0	0	0	0	
19940000000	0	0	29.3141754271757	-73.7600174376149	0	0	0	0	
19950000000	0	0	29.231804261148	-106.186061230551	0	0	0	0	
19960000000	0	0	29.0899968936096	-138.308961779275	0	0	0	0	
19970000000	0	0	28.9153660537966	-169.007667481266	0	0	0	0	
19980000000	0	0	28.7650457250372	160.051653439221	0	0	0	0	
19990000000	0	0	28.694531308701	129.479985322082	0	0	0	0	
20000000000	0	0	28.7891837340719	99.2305471069665	0	0	0	0	
