!Agilent N9918A: A.07.57
!Date: Monday, 27 July 2020 18:00:17
!Timezone: (GMT-08:00) Pacific Time (US & Canada)
!Model: N9918A
!Serial: MY53103598
!GPS Latitude: 
!GPS Longitude: 
!GPS TimeStamp: 0001-01-01 00:00:00Z
!GPS Seconds Since Last Read: 0
!CHECKSUM:0723959448
!Correction: S11()S21(Rdy)S12()S22()
!S2P File: Measurements:S11,S21,S12,S22:
# Hz S DB R 50
18000000000	0	0	10.7588129624282	-60.0652247464058	0	0	0	0	
18010000000	0	0	10.6551492401668	-160.563773629621	0	0	0	0	
18020000000	0	0	10.4947060808026	101.282524301379	0	0	0	0	
18030000000	0	0	9.99708175493127	-4.16610739698809	0	0	0	0	
18040000000	0	0	9.61684646402704	-123.603143965051	0	0	0	0	
18050000000	0	0	10.2214668093206	106.877129922782	0	0	0	0	
18060000000	0	0	10.5758155122094	-12.4403452323188	0	0	0	0	
18070000000	0	0	10.9340458625915	-116.579312550956	0	0	0	0	
18080000000	0	0	10.8740542532161	146.04216222315	0	0	0	0	
18090000000	0	0	10.3953651889551	45.0825401720261	0	0	0	0	
18100000000	0	0	9.61799465984265	-65.1734746033961	0	0	0	0	
18110000000	0	0	8.65660141039267	169.540601967741	0	0	0	0	
18120000000	0	0	9.11887871994519	42.5583913343531	0	0	0	0	
18130000000	0	0	9.79374047693148	-67.6209172701961	0	0	0	0	
18140000000	0	0	10.5131315203573	-166.985249875588	0	0	0	0	
18150000000	0	0	10.6746563900864	92.3862084759394	0	0	0	0	
18160000000	0	0	10.1674650079173	-13.0587785868257	0	0	0	0	
18170000000	0	0	9.8291998695311	-132.350186043293	0	0	0	0	
18180000000	0	0	10.1071751905487	101.143131922599	0	0	0	0	
18190000000	0	0	10.8637089658322	-16.2714877897683	0	0	0	0	
18200000000	0	0	11.3139930681441	-122.679721081807	0	0	0	0	
18210000000	0	0	11.1800221005383	138.071578955566	0	0	0	0	
18220000000	0	0	10.8421220306926	37.9306205924819	0	0	0	0	
18230000000	0	0	10.1483801332403	-71.3052119140279	0	0	0	0	
18240000000	0	0	9.93581928411207	171.862422536064	0	0	0	0	
18250000000	0	0	10.586478194004	50.310461474284	0	0	0	0	
18260000000	0	0	11.3354164051246	-60.6771830223149	0	0	0	0	
18270000000	0	0	11.4419322024622	-164.779622513644	0	0	0	0	
18280000000	0	0	11.2437821934724	97.8387882198029	0	0	0	0	
18290000000	0	0	10.4338232519829	-2.77037742178966	0	0	0	0	
18300000000	0	0	9.9462374850578	-109.222500330063	0	0	0	0	
18310000000	0	0	9.74694525003917	134.371727240354	0	0	0	0	
18320000000	0	0	10.5462340160561	13.5701783253197	0	0	0	0	
18330000000	0	0	11.3308992495934	-98.4208772848208	0	0	0	0	
18340000000	0	0	11.5361754295576	156.355314700688	0	0	0	0	
18350000000	0	0	10.9773904645456	55.91262781041	0	0	0	0	
18360000000	0	0	10.2824863315992	-48.9674929186772	0	0	0	0	
18370000000	0	0	9.95563069069905	-163.458561555178	0	0	0	0	
18380000000	0	0	10.3925632919924	72.6050925751162	0	0	0	0	
18390000000	0	0	10.9682671869503	-46.5320396052419	0	0	0	0	
18400000000	0	0	11.3895622389484	-158.719705463051	0	0	0	0	
18410000000	0	0	11.2596729073266	98.2218954234757	0	0	0	0	
18420000000	0	0	10.6586741084818	-4.64586084797117	0	0	0	0	
18430000000	0	0	10.1470213150698	-113.819018886783	0	0	0	0	
18440000000	0	0	10.0464557215171	130.369834300014	0	0	0	0	
18450000000	0	0	10.4482568146001	11.9793527175445	0	0	0	0	
18460000000	0	0	10.8531646572729	-101.203808129009	0	0	0	0	
18470000000	0	0	11.098952924403	152.828514299719	0	0	0	0	
18480000000	0	0	10.6887699257744	50.5356210898011	0	0	0	0	
18490000000	0	0	10.3132810552335	-50.3142273885336	0	0	0	0	
18500000000	0	0	9.99250919572527	-158.932227697797	0	0	0	0	
18510000000	0	0	9.741596258433	89.8522183965893	0	0	0	0	
18520000000	0	0	10.3869228241561	-22.8264039368362	0	0	0	0	
18530000000	0	0	10.888976222742	-128.00226876313	0	0	0	0	
18540000000	0	0	11.3280415808867	126.409163291421	0	0	0	0	
18550000000	0	0	11.1882944579851	23.3405161484659	0	0	0	0	
18560000000	0	0	10.8151514630318	-83.3198441965016	0	0	0	0	
18570000000	0	0	11.0431355295382	167.01597660229	0	0	0	0	
18580000000	0	0	10.9105446771115	55.0638569170455	0	0	0	0	
18590000000	0	0	10.8867968604459	-54.9963997461687	0	0	0	0	
18600000000	0	0	11.1887222297372	-164.121225114765	0	0	0	0	
18610000000	0	0	11.3226957762008	89.0583940055424	0	0	0	0	
18620000000	0	0	11.0659406018623	-17.6656554802577	0	0	0	0	
18630000000	0	0	10.9302049674378	-126.677964260437	0	0	0	0	
18640000000	0	0	10.5732764538198	124.010930192662	0	0	0	0	
18650000000	0	0	10.47524921628	14.9045094082456	0	0	0	0	
18660000000	0	0	11.0049409422719	-91.3484257151266	0	0	0	0	
18670000000	0	0	11.2144573067069	159.381224702127	0	0	0	0	
18680000000	0	0	11.7030035724753	50.6131596554723	0	0	0	0	
18690000000	0	0	11.2794802561015	-60.1225136735406	0	0	0	0	
18700000000	0	0	10.9025909230623	-172.059549028852	0	0	0	0	
18710000000	0	0	10.4276740913079	81.1497965860915	0	0	0	0	
18720000000	0	0	10.3994256378834	-23.8456614127006	0	0	0	0	
18730000000	0	0	10.9375598888647	-127.742942992311	0	0	0	0	
18740000000	0	0	11.3446180117211	124.246301800366	0	0	0	0	
18750000000	0	0	11.4510102679217	15.0243467226398	0	0	0	0	
18760000000	0	0	11.3070643100675	-98.9821866927323	0	0	0	0	
18770000000	0	0	11.1830570694988	148.808546979525	0	0	0	0	
18780000000	0	0	10.9300911947195	43.8108389242523	0	0	0	0	
18790000000	0	0	11.1304201376692	-59.8439873828759	0	0	0	0	
18800000000	0	0	11.1668782246857	-164.054070636754	0	0	0	0	
18810000000	0	0	11.2452726347895	87.292274904378	0	0	0	0	
18820000000	0	0	10.8904262016004	-27.2956880220781	0	0	0	0	
18830000000	0	0	10.5305652220881	-140.025273098308	0	0	0	0	
18840000000	0	0	10.1535820060476	111.212257301185	0	0	0	0	
18850000000	0	0	10.4715165881184	9.95361201162625	0	0	0	0	
18860000000	0	0	10.999768265464	-91.4538055425015	0	0	0	0	
18870000000	0	0	11.1736352878595	164.875328932294	0	0	0	0	
18880000000	0	0	11.2662704861836	56.2212830155808	0	0	0	0	
18890000000	0	0	11.0545756038182	-58.7820519256966	0	0	0	0	
18900000000	0	0	10.8762951889941	-171.530142957619	0	0	0	0	
18910000000	0	0	11.2179597451389	79.7994543142847	0	0	0	0	
18920000000	0	0	11.726030401114	-23.3743987269642	0	0	0	0	
18930000000	0	0	11.8863831959618	-124.506267031582	0	0	0	0	
18940000000	0	0	11.8923612627237	131.438915998278	0	0	0	0	
18950000000	0	0	11.4320052913632	23.5520134847698	0	0	0	0	
18960000000	0	0	10.9226157981782	-90.1993626098973	0	0	0	0	
18970000000	0	0	11.175201510037	156.742112964905	0	0	0	0	
18980000000	0	0	11.7008093871923	46.0213058622206	0	0	0	0	
18990000000	0	0	12.0700434030699	-56.7667433112992	0	0	0	0	
19000000000	0	0	12.1605088118702	-158.890028124888	0	0	0	0	
19010000000	0	0	11.6089572721508	97.6485578880516	0	0	0	0	
19020000000	0	0	11.0424886861145	-9.76182798820419	0	0	0	0	
19030000000	0	0	10.4715867230926	-121.9226924493	0	0	0	0	
19040000000	0	0	10.8066798859559	123.3396757903	0	0	0	0	
19050000000	0	0	11.5498807071294	13.7700544893668	0	0	0	0	
19060000000	0	0	11.9648689791301	-90.0903026824621	0	0	0	0	
19070000000	0	0	12.042626926816	168.451514481839	0	0	0	0	
19080000000	0	0	11.4241942547521	64.7172694358637	0	0	0	0	
19090000000	0	0	10.8081138758574	-39.733540459827	0	0	0	0	
19100000000	0	0	10.5970556508078	-153.253637321643	0	0	0	0	
19110000000	0	0	11.1265034936617	91.8255658313104	0	0	0	0	
19120000000	0	0	11.9671868958779	-17.6231191675784	0	0	0	0	
19130000000	0	0	12.3051416728047	-122.318175855019	0	0	0	0	
19140000000	0	0	12.2553586349822	138.106461633292	0	0	0	0	
19150000000	0	0	11.5378868564894	37.602426956661	0	0	0	0	
19160000000	0	0	10.9944602461691	-64.1133986368909	0	0	0	0	
19170000000	0	0	10.5885577563983	-176.508991205144	0	0	0	0	
19180000000	0	0	11.3325179483445	68.283875855038	0	0	0	0	
19190000000	0	0	12.0823180598273	-44.2827977507148	0	0	0	0	
19200000000	0	0	12.1625798794934	-148.687630840644	0	0	0	0	
19210000000	0	0	11.7494188982711	111.439820354238	0	0	0	0	
19220000000	0	0	11.048779509444	15.1681620964617	0	0	0	0	
19230000000	0	0	10.4567462237387	-86.8334423270497	0	0	0	0	
19240000000	0	0	10.3468669769459	161.067532590558	0	0	0	0	
19250000000	0	0	11.070123077764	45.6381281842664	0	0	0	0	
19260000000	0	0	11.9551402731011	-68.483149193531	0	0	0	0	
19270000000	0	0	12.0328893920585	-172.866097083845	0	0	0	0	
19280000000	0	0	11.875028694631	87.0936206146725	0	0	0	0	
19290000000	0	0	11.129719902216	-11.1913908090945	0	0	0	0	
19300000000	0	0	10.6303094392339	-114.489886780614	0	0	0	0	
19310000000	0	0	10.7487076812608	132.919408806237	0	0	0	0	
19320000000	0	0	11.1762252538057	17.0445984601558	0	0	0	0	
19330000000	0	0	11.7831394471288	-96.21484088667	0	0	0	0	
19340000000	0	0	11.8773465846687	161.757278330109	0	0	0	0	
19350000000	0	0	11.716311101439	63.7281572800164	0	0	0	0	
19360000000	0	0	11.3315958819702	-34.3777958717244	0	0	0	0	
19370000000	0	0	10.8174071763782	-136.127467988858	0	0	0	0	
19380000000	0	0	10.3902267804215	115.113667955238	0	0	0	0	
19390000000	0	0	10.7966366404671	0.497478429401697	0	0	0	0	
19400000000	0	0	11.5070498486361	-110.602119678176	0	0	0	0	
19410000000	0	0	11.4338766906008	146.366305842497	0	0	0	0	
19420000000	0	0	11.4353044987273	48.1167860931711	0	0	0	0	
19430000000	0	0	10.8934972771501	-48.4256910159508	0	0	0	0	
19440000000	0	0	10.4634675942275	-147.135032340067	0	0	0	0	
19450000000	0	0	10.1561241440348	105.413969782831	0	0	0	0	
19460000000	0	0	10.3671295600182	-8.58206245231645	0	0	0	0	
19470000000	0	0	11.0684476708014	-120.60723822993	0	0	0	0	
19480000000	0	0	11.4079463416458	133.169427679839	0	0	0	0	
19490000000	0	0	11.4751269011301	31.7021357915097	0	0	0	0	
19500000000	0	0	11.1873281341576	-68.1748960317474	0	0	0	0	
19510000000	0	0	10.6707459796757	-171.100203602304	0	0	0	0	
19520000000	0	0	10.5331442659233	77.9844296276529	0	0	0	0	
19530000000	0	0	10.4360440904436	-35.1217837948131	0	0	0	0	
19540000000	0	0	11.039192717712	-146.941250798268	0	0	0	0	
19550000000	0	0	11.4126913244439	106.258768342474	0	0	0	0	
19560000000	0	0	11.4308258399182	5.45625903987758	0	0	0	0	
19570000000	0	0	11.1165493357471	-96.1069389445518	0	0	0	0	
19580000000	0	0	10.5691202801716	160.235531375999	0	0	0	0	
19590000000	0	0	10.485430117554	52.4357918987371	0	0	0	0	
19600000000	0	0	10.3106683785408	-57.9625435460995	0	0	0	0	
19610000000	0	0	10.7285237788525	-167.774877300242	0	0	0	0	
19620000000	0	0	11.1335614321207	88.9805148708859	0	0	0	0	
19630000000	0	0	11.3316439475689	-7.71164713937073	0	0	0	0	
19640000000	0	0	10.9759268324253	-106.048470293702	0	0	0	0	
19650000000	0	0	10.5341477565935	152.827494443151	0	0	0	0	
19660000000	0	0	10.3189313926809	48.2048197126833	0	0	0	0	
19670000000	0	0	10.23211638409	-59.0168578678045	0	0	0	0	
19680000000	0	0	10.5621458287766	-167.912631060895	0	0	0	0	
19690000000	0	0	10.7213486854025	88.4913028527843	0	0	0	0	
19700000000	0	0	10.8846031595101	-12.4692309425642	0	0	0	0	
19710000000	0	0	10.9131783426949	-112.602585139229	0	0	0	0	
19720000000	0	0	10.5522036767022	146.398564700068	0	0	0	0	
19730000000	0	0	10.1613568729097	41.025922970164	0	0	0	0	
19740000000	0	0	10.0651785390041	-70.1156850371447	0	0	0	0	
19750000000	0	0	10.1812629123965	179.914799828168	0	0	0	0	
19760000000	0	0	10.3840020998647	74.389229122115	0	0	0	0	
19770000000	0	0	10.5726889211083	-29.725432021291	0	0	0	0	
19780000000	0	0	10.5412256299369	-131.003743095946	0	0	0	0	
19790000000	0	0	10.307517192371	124.755596656417	0	0	0	0	
19800000000	0	0	9.85952682674679	15.8970879895111	0	0	0	0	
19810000000	0	0	9.74699133231281	-94.7699535356788	0	0	0	0	
19820000000	0	0	9.86955834495117	156.186128892028	0	0	0	0	
19830000000	0	0	10.046707815363	51.0257250761814	0	0	0	0	
19840000000	0	0	10.1105580744968	-45.9739924286043	0	0	0	0	
19850000000	0	0	10.5313350157143	-148.654087249702	0	0	0	0	
19860000000	0	0	10.259386133612	107.635676877106	0	0	0	0	
19870000000	0	0	9.98561263951666	1.84118862882476	0	0	0	0	
19880000000	0	0	9.98909132622157	-107.382409024122	0	0	0	0	
19890000000	0	0	9.76362958193506	144.699827801273	0	0	0	0	
19900000000	0	0	8.02650031932861	41.3969691362216	0	0	0	0	
19910000000	0	0	10.4134102592148	-52.6205420605511	0	0	0	0	
19920000000	0	0	10.5563455089969	-153.990849617285	0	0	0	0	
19930000000	0	0	10.2875710090127	104.867347083393	0	0	0	0	
19940000000	0	0	10.1087261965396	0.583128379935675	0	0	0	0	
19950000000	0	0	9.80498356402869	-106.541647976614	0	0	0	0	
19960000000	0	0	9.84953773488838	145.442351823776	0	0	0	0	
19970000000	0	0	9.9324715621927	39.8261107837233	0	0	0	0	
19980000000	0	0	9.86270405074217	-62.2078777921487	0	0	0	0	
19990000000	0	0	9.82823504979795	-162.991829136115	0	0	0	0	
20000000000	0	0	9.5398605174607	94.9859233897621	0	0	0	0	
