!Agilent N9918A: A.07.57
!Date: Thursday, 03 September 2020 18:58:36
!Timezone: (GMT-08:00) Pacific Time (US & Canada)
!Model: N9918A
!Serial: MY53103598
!GPS Latitude: 
!GPS Longitude: 
!GPS TimeStamp: 0001-01-01 00:00:00Z
!GPS Seconds Since Last Read: 0
!CHECKSUM:0505457364
!Correction: S11()S21(Rdy)S12()S22()
!S2P File: Measurements:S11,S21,S12,S22:
# Hz S DB R 50
19000000000	0	0	-30.51922677036	73.8594616158064	0	0	0	0	
19005000000	0	0	-25.6222867417805	-133.578913910549	0	0	0	0	
19010000000	0	0	-31.8749950739212	93.9672120501112	0	0	0	0	
19015000000	0	0	-41.26362827507	-72.9762029759769	0	0	0	0	
19020000000	0	0	-25.5281657766679	78.3181337053273	0	0	0	0	
19025000000	0	0	-24.1364919088495	-21.3113555768075	0	0	0	0	
19030000000	0	0	-26.3216026317966	67.9870115167543	0	0	0	0	
19035000000	0	0	-33.1620767755277	-51.2151500328181	0	0	0	0	
19040000000	0	0	-24.0511538736699	-88.5560239774117	0	0	0	0	
19045000000	0	0	-37.4362828986659	135.073132393254	0	0	0	0	
19050000000	0	0	-28.7780968615393	-169.372312144313	0	0	0	0	
19055000000	0	0	-29.4710721025043	115.989105035651	0	0	0	0	
19060000000	0	0	-29.6097145226299	-10.8529414584492	0	0	0	0	
19065000000	0	0	-34.1790684277966	-121.626389549354	0	0	0	0	
19070000000	0	0	-29.7718993215717	42.5871402027123	0	0	0	0	
19075000000	0	0	-25.6466389594251	-52.9303098774002	0	0	0	0	
19080000000	0	0	-26.4542914512432	-74.3075304465598	0	0	0	0	
19085000000	0	0	-29.2527839936165	173.08552130994	0	0	0	0	
19090000000	0	0	-28.6115832225852	-147.244612866525	0	0	0	0	
19095000000	0	0	-41.3032195015579	-174.955142632894	0	0	0	0	
19100000000	0	0	-34.6179142068139	128.090045163029	0	0	0	0	
19105000000	0	0	-31.1974302155803	125.927683915003	0	0	0	0	
19110000000	0	0	-30.4828411594278	86.9823733927033	0	0	0	0	
19115000000	0	0	-25.0445619799878	43.1895982442518	0	0	0	0	
19120000000	0	0	-27.4700325994333	48.7006050176839	0	0	0	0	
19125000000	0	0	-30.4899641232259	153.207151542334	0	0	0	0	
19130000000	0	0	-29.0731128671156	-21.3005506613193	0	0	0	0	
19135000000	0	0	-23.5599376459437	-67.300062548115	0	0	0	0	
19140000000	0	0	-36.356342802179	-9.20207771615511	0	0	0	0	
19145000000	0	0	-29.1616045215082	80.6919029630593	0	0	0	0	
19150000000	0	0	-34.1707034064224	-25.0687040640475	0	0	0	0	
19155000000	0	0	-31.6683528397721	-66.9205130678001	0	0	0	0	
19160000000	0	0	-36.7273151933615	49.931927473833	0	0	0	0	
19165000000	0	0	-27.6487326043379	-48.4699347888789	0	0	0	0	
19170000000	0	0	-33.5939923531745	-36.7348332167871	0	0	0	0	
19175000000	0	0	-26.5338013905232	152.720448647086	0	0	0	0	
19180000000	0	0	-34.7918326959103	80.55246511047	0	0	0	0	
19185000000	0	0	-29.6109093039551	98.150849818787	0	0	0	0	
19190000000	0	0	-23.6651383771747	144.676974380817	0	0	0	0	
19195000000	0	0	-21.7886602940984	2.11445906577236	0	0	0	0	
19200000000	0	0	-24.9957379444221	-43.2514011424972	0	0	0	0	
19205000000	0	0	-35.7877432846351	-16.7143948837036	0	0	0	0	
19210000000	0	0	-27.4760933782382	-17.9908243623776	0	0	0	0	
19215000000	0	0	-26.5481530630554	-120.901112158161	0	0	0	0	
19220000000	0	0	-29.4375724185046	-101.884681788236	0	0	0	0	
19225000000	0	0	-44.3663348960128	65.855984134908	0	0	0	0	
19230000000	0	0	-32.2037494365215	92.805208225706	0	0	0	0	
19235000000	0	0	-34.0559797133607	-74.7022511930079	0	0	0	0	
19240000000	0	0	-25.0797513142584	123.558107132726	0	0	0	0	
19245000000	0	0	-25.0461086006905	-12.7648392755484	0	0	0	0	
19250000000	0	0	-39.8201087100241	-162.103923529	0	0	0	0	
19255000000	0	0	-24.1683140887018	1.09146418979257	0	0	0	0	
19260000000	0	0	-42.213193726628	-127.629081680962	0	0	0	0	
19265000000	0	0	-21.9112299724497	169.367257869574	0	0	0	0	
19270000000	0	0	-24.9077421750912	128.254111342433	0	0	0	0	
19275000000	0	0	-26.6337500279714	168.73544695097	0	0	0	0	
19280000000	0	0	-33.5702102114635	137.10600480463	0	0	0	0	
19285000000	0	0	-23.1702030325788	29.4708112714251	0	0	0	0	
19290000000	0	0	-27.2813086287973	67.8268613212436	0	0	0	0	
19295000000	0	0	-27.3279587826749	80.8150568546448	0	0	0	0	
19300000000	0	0	-32.2264404073033	-93.4583268679678	0	0	0	0	
19305000000	0	0	-23.5944004643635	-124.701980409428	0	0	0	0	
19310000000	0	0	-29.8556672070724	-113.179044934763	0	0	0	0	
19315000000	0	0	-25.0290114500929	128.411965063336	0	0	0	0	
19320000000	0	0	-23.7924356815132	149.009119037708	0	0	0	0	
19325000000	0	0	-23.5756409430541	100.260548376527	0	0	0	0	
19330000000	0	0	-41.4464600661486	59.9381912959112	0	0	0	0	
19335000000	0	0	-22.315517035209	-19.8992487397201	0	0	0	0	
19340000000	0	0	-37.2112219181639	-66.7881649323278	0	0	0	0	
19345000000	0	0	-33.7988766106944	71.8135048569962	0	0	0	0	
19350000000	0	0	-29.2082059581923	-37.2316816661474	0	0	0	0	
19355000000	0	0	-37.1765580755437	-50.5251610435548	0	0	0	0	
19360000000	0	0	-21.7109601807838	-151.024205601868	0	0	0	0	
19365000000	0	0	-24.803572929289	96.1537724828796	0	0	0	0	
19370000000	0	0	-27.8468555384611	53.2856059195722	0	0	0	0	
19375000000	0	0	-23.0555596404391	66.4089391399968	0	0	0	0	
19380000000	0	0	-37.0625891444769	54.8544801556746	0	0	0	0	
19385000000	0	0	-23.7957380940741	-95.8963033606401	0	0	0	0	
19390000000	0	0	-22.6323146313533	-78.6138704232036	0	0	0	0	
19395000000	0	0	-36.6025741837209	-73.0312642166921	0	0	0	0	
19400000000	0	0	-27.5865036880436	-121.39745041274	0	0	0	0	
19405000000	0	0	-27.2143584470216	150.951468883576	0	0	0	0	
19410000000	0	0	-23.6621357166006	142.986638747759	0	0	0	0	
19415000000	0	0	-26.4109800201089	57.9576220143482	0	0	0	0	
19420000000	0	0	-24.7211168013698	76.4862838992114	0	0	0	0	
19425000000	0	0	-25.0468810673286	31.7000988943362	0	0	0	0	
19430000000	0	0	-29.1647989088052	141.977222281899	0	0	0	0	
19435000000	0	0	-26.4520952665506	-16.2892307970458	0	0	0	0	
19440000000	0	0	-29.2342691959066	-97.5807365206568	0	0	0	0	
19445000000	0	0	-25.528673091286	-93.0961266791252	0	0	0	0	
19450000000	0	0	-35.9146402785026	123.251880455739	0	0	0	0	
19455000000	0	0	-24.8227552238642	102.511079726213	0	0	0	0	
19460000000	0	0	-31.8172180498367	85.0524012992053	0	0	0	0	
19465000000	0	0	-25.9262395909678	57.7523565610005	0	0	0	0	
19470000000	0	0	-28.7798166542659	-154.330259325265	0	0	0	0	
19475000000	0	0	-32.765775217074	-165.013200831531	0	0	0	0	
19480000000	0	0	-22.2878343799569	-63.622099376633	0	0	0	0	
19485000000	0	0	-33.7749722604496	-76.9504595283856	0	0	0	0	
19490000000	0	0	-25.4343128916842	-154.059557098871	0	0	0	0	
19495000000	0	0	-28.1891183772636	152.57012529432	0	0	0	0	
19500000000	0	0	-36.4110169335462	-151.516543167117	0	0	0	0	
19505000000	0	0	-26.6940701837555	-72.467187511081	0	0	0	0	
19510000000	0	0	-22.3688544677053	35.9948045845614	0	0	0	0	
19515000000	0	0	-28.0035544058692	11.2046767083711	0	0	0	0	
19520000000	0	0	-25.9512887602723	2.46005513773458	0	0	0	0	
19525000000	0	0	-33.1775349766189	124.777351371841	0	0	0	0	
19530000000	0	0	-22.4097149429987	-173.910131789198	0	0	0	0	
19535000000	0	0	-26.4195413349901	101.209629467843	0	0	0	0	
19540000000	0	0	-25.3550988549441	152.736173577746	0	0	0	0	
19545000000	0	0	-29.6826690300216	133.413698983827	0	0	0	0	
19550000000	0	0	-30.7834887517513	138.768329883388	0	0	0	0	
19555000000	0	0	-28.0703504324785	29.5353621907297	0	0	0	0	
19560000000	0	0	-36.0121997905119	5.51234048642355	0	0	0	0	
19565000000	0	0	-26.0764681261577	-8.61050165858862	0	0	0	0	
19570000000	0	0	-26.2373578851423	-93.9832082088765	0	0	0	0	
19575000000	0	0	-39.9370235812934	136.307157445966	0	0	0	0	
19580000000	0	0	-24.0127992763034	-99.1483924596552	0	0	0	0	
19585000000	0	0	-23.067692225161	-162.157997131317	0	0	0	0	
19590000000	0	0	-32.411231011572	-151.992577696426	0	0	0	0	
19595000000	0	0	-29.1686259620396	65.4092740285494	0	0	0	0	
19600000000	0	0	-23.9696898034102	4.41118479685006	0	0	0	0	
19605000000	0	0	-22.405485121393	-9.92976972714733	0	0	0	0	
19610000000	0	0	-25.2296924282067	-63.9822723238339	0	0	0	0	
19615000000	0	0	-22.7533772874818	-79.1063699838948	0	0	0	0	
19620000000	0	0	-26.9610939846743	-148.420460185884	0	0	0	0	
19625000000	0	0	-33.9284779760319	-146.482527392058	0	0	0	0	
19630000000	0	0	-27.8673935831564	-158.90099639171	0	0	0	0	
19635000000	0	0	-28.4224775486509	98.7819130513689	0	0	0	0	
19640000000	0	0	-27.8876161042643	14.6510548792819	0	0	0	0	
19645000000	0	0	-16.7399540700406	9.56965268447237	0	0	0	0	
19650000000	0	0	-22.6769093936365	-3.98789632610655	0	0	0	0	
19655000000	0	0	-23.3712587420021	-75.5996331648007	0	0	0	0	
19660000000	0	0	-35.5569712256444	-133.426895549064	0	0	0	0	
19665000000	0	0	-24.3615497937544	138.521116479929	0	0	0	0	
19670000000	0	0	-29.761970921068	161.537796863324	0	0	0	0	
19675000000	0	0	-36.0647845706252	-168.565377813376	0	0	0	0	
19680000000	0	0	-21.5239510442291	97.4951401262205	0	0	0	0	
19685000000	0	0	-22.4289508909636	53.1474578688295	0	0	0	0	
19690000000	0	0	-40.4543532368568	-59.2338251778921	0	0	0	0	
19695000000	0	0	-23.024010932078	26.8259268281114	0	0	0	0	
19700000000	0	0	-32.7890798038475	-84.1323218077299	0	0	0	0	
19705000000	0	0	-30.1572339974214	-142.054949971816	0	0	0	0	
19710000000	0	0	-31.4911561304842	-63.9892238924505	0	0	0	0	
19715000000	0	0	-35.1856674696929	-155.860849148102	0	0	0	0	
19720000000	0	0	-25.9993628345451	-165.603524332954	0	0	0	0	
19725000000	0	0	-24.1759603016654	94.9648260885441	0	0	0	0	
19730000000	0	0	-30.8311160734011	29.2201220733241	0	0	0	0	
19735000000	0	0	-27.2545861041441	-11.5406140922049	0	0	0	0	
19740000000	0	0	-27.8756282463446	73.9222269660193	0	0	0	0	
19745000000	0	0	-30.0208291565653	172.619992452963	0	0	0	0	
19750000000	0	0	-21.1048058471255	-81.4483637276321	0	0	0	0	
19755000000	0	0	-26.4437044713364	-148.48923255887	0	0	0	0	
19760000000	0	0	-22.3622088007325	122.35145990567	0	0	0	0	
19765000000	0	0	-32.2203000182664	-98.2286151333373	0	0	0	0	
19770000000	0	0	-35.0542565738353	154.331267972471	0	0	0	0	
19775000000	0	0	-28.8424083269859	114.047849605477	0	0	0	0	
19780000000	0	0	-32.0664170815181	45.9186763410511	0	0	0	0	
19785000000	0	0	-31.3796640504303	-55.2296808926578	0	0	0	0	
19790000000	0	0	-22.8115917578212	-32.9335295319339	0	0	0	0	
19795000000	0	0	-28.0475849291774	-118.58027188556	0	0	0	0	
19800000000	0	0	-26.319269544651	-145.505694686889	0	0	0	0	
19805000000	0	0	-20.995858718039	163.84695817124	0	0	0	0	
19810000000	0	0	-29.175517184192	-140.922620937132	0	0	0	0	
19815000000	0	0	-31.9161686110716	81.1312882047227	0	0	0	0	
19820000000	0	0	-30.0394077168759	76.8570258326977	0	0	0	0	
19825000000	0	0	-37.9058198201775	162.485773226037	0	0	0	0	
19830000000	0	0	-25.4169183835997	15.9219821776556	0	0	0	0	
19835000000	0	0	-30.9109971676687	-100.692028850261	0	0	0	0	
19840000000	0	0	-30.3837492643904	-128.454591968358	0	0	0	0	
19845000000	0	0	-22.3036152630342	-155.107325984632	0	0	0	0	
19850000000	0	0	-26.4471309589025	103.24542002674	0	0	0	0	
19855000000	0	0	-36.0084702006373	125.063791515448	0	0	0	0	
19860000000	0	0	-28.7826118022309	104.209684381818	0	0	0	0	
19865000000	0	0	-33.6996043755671	-26.400269597427	0	0	0	0	
19870000000	0	0	-31.555208096623	-8.9661164864887	0	0	0	0	
19875000000	0	0	-27.2539697720721	-108.11424779475	0	0	0	0	
19880000000	0	0	-32.5634617936722	116.668953272373	0	0	0	0	
19885000000	0	0	-26.8538112669267	-100.161687589738	0	0	0	0	
19890000000	0	0	-28.3762223381907	-134.46507635124	0	0	0	0	
19895000000	0	0	-31.195808979154	121.360405601363	0	0	0	0	
19900000000	0	0	-30.7275027569502	-156.625717075029	0	0	0	0	
19905000000	0	0	-52.7121556098592	-61.868251379378	0	0	0	0	
19910000000	0	0	-28.3558605315583	149.573501077389	0	0	0	0	
19915000000	0	0	-27.9130791122208	39.0698789013901	0	0	0	0	
19920000000	0	0	-28.5154555315835	-28.1038056447989	0	0	0	0	
19925000000	0	0	-31.6370540678795	-46.3374304234093	0	0	0	0	
19930000000	0	0	-19.1311984257269	-122.559591059401	0	0	0	0	
19935000000	0	0	-36.7552602176376	157.395462882054	0	0	0	0	
19940000000	0	0	-26.9535078660564	128.830104230522	0	0	0	0	
19945000000	0	0	-30.9737122884198	147.779671628275	0	0	0	0	
19950000000	0	0	-34.5186814200493	159.171401840897	0	0	0	0	
19955000000	0	0	-26.5420598685042	76.5353496825478	0	0	0	0	
19960000000	0	0	-29.8921254169473	-51.8759726800684	0	0	0	0	
19965000000	0	0	-23.6593244028709	-54.6880022419124	0	0	0	0	
19970000000	0	0	-26.6116319600328	-82.3114724626573	0	0	0	0	
19975000000	0	0	-23.7196031050001	-116.83751535668	0	0	0	0	
19980000000	0	0	-23.5848573608149	-105.022600219053	0	0	0	0	
19985000000	0	0	-30.6470631708175	-146.855595386336	0	0	0	0	
19990000000	0	0	-24.2792930716442	105.574202251517	0	0	0	0	
19995000000	0	0	-36.6921344154367	141.662069267993	0	0	0	0	
20000000000	0	0	-33.2622861413416	86.8265793240181	0	0	0	0	
