!Agilent N9918A: A.07.57
!Date: Friday, 11 September 2020 13:00:01
!Timezone: (GMT-08:00) Pacific Time (US & Canada)
!Model: N9918A
!Serial: MY53103598
!GPS Latitude: 
!GPS Longitude: 
!GPS TimeStamp: 0001-01-01 00:00:00Z
!GPS Seconds Since Last Read: 0
!CHECKSUM:0765859723
!Correction: S11()S21(Rdy)S12()S22()
!S2P File: Measurements:S11,S21,S12,S22:
# Hz S DB R 50
18000000000	0	0	12.4019829537898	-10.2114248578741	0	0	0	0	
18010000000	0	0	13.6484685358932	-117.277120388203	0	0	0	0	
18020000000	0	0	14.7975061452128	152.454670276772	0	0	0	0	
18030000000	0	0	15.0796766172037	67.8537247218576	0	0	0	0	
18040000000	0	0	15.4053005595469	-13.2206865019212	0	0	0	0	
18050000000	0	0	15.3065637999723	-97.9128953060305	0	0	0	0	
18060000000	0	0	15.0626233595757	170.618452945216	0	0	0	0	
18070000000	0	0	14.2528036027622	66.5979734945887	0	0	0	0	
18080000000	0	0	13.5200641515747	-46.7376335356223	0	0	0	0	
18090000000	0	0	13.4663337167654	-153.937503554327	0	0	0	0	
18100000000	0	0	14.3125391799076	108.015768600094	0	0	0	0	
18110000000	0	0	14.9828953265012	22.3963258641481	0	0	0	0	
18120000000	0	0	15.1220842409095	-60.890568812701	0	0	0	0	
18130000000	0	0	15.5832816932399	-147.80954810198	0	0	0	0	
18140000000	0	0	15.5487773282019	119.270145658924	0	0	0	0	
18150000000	0	0	15.0817221976912	14.2149282195301	0	0	0	0	
18160000000	0	0	14.3616571092775	-97.8754166294684	0	0	0	0	
18170000000	0	0	14.4215398771431	155.177344990136	0	0	0	0	
18180000000	0	0	14.639086247033	61.0477465274457	0	0	0	0	
18190000000	0	0	15.0064092160798	-24.1067712743753	0	0	0	0	
18200000000	0	0	15.3294688442561	-105.170640489711	0	0	0	0	
18210000000	0	0	15.4086122870432	173.441717249094	0	0	0	0	
18220000000	0	0	15.2724474715068	88.8712666734951	0	0	0	0	
18230000000	0	0	14.6075263432479	-1.86731260527858	0	0	0	0	
18240000000	0	0	14.2647196606536	-104.389051526099	0	0	0	0	
18250000000	0	0	14.0699126645643	144.317134118978	0	0	0	0	
18260000000	0	0	14.7282631949769	36.9855330177124	0	0	0	0	
18270000000	0	0	15.0531149527807	-56.7975152492249	0	0	0	0	
18280000000	0	0	15.4992837118363	-143.072858066859	0	0	0	0	
18290000000	0	0	15.5764395264017	136.576426818476	0	0	0	0	
18300000000	0	0	15.5191484293651	58.1411745497188	0	0	0	0	
18310000000	0	0	15.1804873652426	-22.0530162052207	0	0	0	0	
18320000000	0	0	14.6452563309632	-108.806221664375	0	0	0	0	
18330000000	0	0	13.9146856752194	153.529820823457	0	0	0	0	
18340000000	0	0	13.242763619159	37.5063788375545	0	0	0	0	
18350000000	0	0	14.2344233718296	-78.4855848629203	0	0	0	0	
18360000000	0	0	14.8990825552126	-179.670613229027	0	0	0	0	
18370000000	0	0	15.3959379913671	93.539687117756	0	0	0	0	
18380000000	0	0	15.5921463256746	10.8693569960115	0	0	0	0	
18390000000	0	0	15.5661465926869	-67.5062698579045	0	0	0	0	
18400000000	0	0	15.0719910746726	-148.869624428256	0	0	0	0	
18410000000	0	0	14.3732110164283	123.097090548143	0	0	0	0	
18420000000	0	0	13.1168354966273	22.9172476606225	0	0	0	0	
18430000000	0	0	12.0827426826909	-90.2399198550103	0	0	0	0	
18440000000	0	0	13.258170408546	157.526329611234	0	0	0	0	
18450000000	0	0	14.8733553640628	56.9097238940891	0	0	0	0	
18460000000	0	0	15.5439609533595	-33.9904615762604	0	0	0	0	
18470000000	0	0	15.8056180970279	-116.300756615429	0	0	0	0	
18480000000	0	0	15.7425059257664	162.267407548854	0	0	0	0	
18490000000	0	0	15.032005620551	81.7281352631523	0	0	0	0	
18500000000	0	0	14.1709356423041	-5.33154633904553	0	0	0	0	
18510000000	0	0	12.8025457452466	-98.4809609876597	0	0	0	0	
18520000000	0	0	12.1887464588266	157.003493332833	0	0	0	0	
18530000000	0	0	13.0841609349126	47.9228604087183	0	0	0	0	
18540000000	0	0	14.5342653996273	-53.9033289214447	0	0	0	0	
18550000000	0	0	15.5052807259936	-146.397891962941	0	0	0	0	
18560000000	0	0	15.8152180481387	127.827245735189	0	0	0	0	
18570000000	0	0	15.5243588165397	45.8474062831867	0	0	0	0	
18580000000	0	0	14.8284058922292	-36.2925225845633	0	0	0	0	
18590000000	0	0	13.7011109046672	-115.644573500332	0	0	0	0	
18600000000	0	0	12.4853436830101	157.741683207064	0	0	0	0	
18610000000	0	0	11.4122432407839	64.1749092889929	0	0	0	0	
18620000000	0	0	12.0078317689246	-44.5099186300739	0	0	0	0	
18630000000	0	0	13.6748643377385	-150.284477301965	0	0	0	0	
18640000000	0	0	15.1314040204947	110.935974714647	0	0	0	0	
18650000000	0	0	15.8615446499587	20.3200157360864	0	0	0	0	
18660000000	0	0	15.7690454248726	-64.5965977732284	0	0	0	0	
18670000000	0	0	15.046717854243	-144.393748780521	0	0	0	0	
18680000000	0	0	14.3546517216192	133.920517997569	0	0	0	0	
18690000000	0	0	13.9641301555806	48.2897811626469	0	0	0	0	
18700000000	0	0	13.7381328732155	-46.4725886900894	0	0	0	0	
18710000000	0	0	13.8329557489019	-149.722747575842	0	0	0	0	
18720000000	0	0	14.4010303814682	103.931294925056	0	0	0	0	
18730000000	0	0	15.2541128006055	2.79121527059937	0	0	0	0	
18740000000	0	0	15.4319697306927	-89.3061062318174	0	0	0	0	
18750000000	0	0	15.4585450179317	-173.913018737189	0	0	0	0	
18760000000	0	0	15.2515053406187	101.629124668865	0	0	0	0	
18770000000	0	0	15.1796935063438	18.312333877758	0	0	0	0	
18780000000	0	0	14.5891869388678	-70.6750843151394	0	0	0	0	
18790000000	0	0	14.3128068152872	-168.4473901373	0	0	0	0	
18800000000	0	0	14.2436261997176	87.379110784223	0	0	0	0	
18810000000	0	0	14.8158896525035	-16.1374670642734	0	0	0	0	
18820000000	0	0	15.4164936523004	-111.645313324398	0	0	0	0	
18830000000	0	0	15.5465161576494	160.70893769304	0	0	0	0	
18840000000	0	0	15.6855473949461	76.7521383479572	0	0	0	0	
18850000000	0	0	15.7138065717691	-6.31511954636946	0	0	0	0	
18860000000	0	0	15.1487640065726	-91.4551263915595	0	0	0	0	
18870000000	0	0	14.2800299038722	178.088735487253	0	0	0	0	
18880000000	0	0	13.4711829553851	79.2755641352181	0	0	0	0	
18890000000	0	0	12.7583543540808	-26.2531739553794	0	0	0	0	
18900000000	0	0	13.3346205075444	-128.813077701443	0	0	0	0	
18910000000	0	0	13.8958360680139	137.643976881807	0	0	0	0	
18920000000	0	0	15.1713499000078	49.8633180237711	0	0	0	0	
18930000000	0	0	15.7459873157703	-29.3856072906168	0	0	0	0	
18940000000	0	0	16.148486694655	-114.2145580802	0	0	0	0	
18950000000	0	0	15.6825822476282	163.929482053207	0	0	0	0	
18960000000	0	0	14.3483117824949	79.2356570124078	0	0	0	0	
18970000000	0	0	13.3572613482566	-10.8982883469614	0	0	0	0	
18980000000	0	0	12.250212451629	-111.685584997445	0	0	0	0	
18990000000	0	0	12.3171407809409	141.249539548193	0	0	0	0	
19000000000	0	0	13.7048287969136	37.7816074592152	0	0	0	0	
19010000000	0	0	15.0830145311825	-57.7673771410855	0	0	0	0	
19020000000	0	0	15.7599801058531	-144.629731127532	0	0	0	0	
19030000000	0	0	15.9963059433785	133.038276126918	0	0	0	0	
19040000000	0	0	16.0879734644964	53.5358202847661	0	0	0	0	
19050000000	0	0	15.6789043853244	-29.2318505903946	0	0	0	0	
19060000000	0	0	15.0537825699761	-113.508033785229	0	0	0	0	
19070000000	0	0	14.2111669604019	152.860408856346	0	0	0	0	
19080000000	0	0	13.7350766514053	50.4030881545381	0	0	0	0	
19090000000	0	0	13.9894150724246	-57.1573008583231	0	0	0	0	
19100000000	0	0	15.1185433465866	-159.053846460506	0	0	0	0	
19110000000	0	0	15.9080068409281	110.435204402352	0	0	0	0	
19120000000	0	0	16.292887625648	23.7538919450934	0	0	0	0	
19130000000	0	0	16.5518204663886	-58.5935904086587	0	0	0	0	
19140000000	0	0	16.4460011413757	-139.600766356481	0	0	0	0	
19150000000	0	0	15.9100433445559	137.570941331884	0	0	0	0	
19160000000	0	0	15.3843104188665	50.4113041179965	0	0	0	0	
19170000000	0	0	14.5961136981727	-45.9936992977713	0	0	0	0	
19180000000	0	0	14.762872605712	-149.05743771297	0	0	0	0	
19190000000	0	0	15.5720514723102	105.45540322224	0	0	0	0	
19200000000	0	0	16.0821776767161	5.12833828343957	0	0	0	0	
19210000000	0	0	16.4940684281382	-83.7642148702896	0	0	0	0	
19220000000	0	0	16.4240818008763	-169.812855896797	0	0	0	0	
19230000000	0	0	16.2571916041853	109.580608515098	0	0	0	0	
19240000000	0	0	15.8899541870859	29.8476167240819	0	0	0	0	
19250000000	0	0	15.4771856788413	-53.9775469840283	0	0	0	0	
19260000000	0	0	15.2738781258196	-144.063675306452	0	0	0	0	
19270000000	0	0	15.1610903742175	116.076222756839	0	0	0	0	
19280000000	0	0	15.5358840313009	10.2082711969302	0	0	0	0	
19290000000	0	0	15.9880031381064	-93.9832492435617	0	0	0	0	
19300000000	0	0	16.2622238724106	173.09928730339	0	0	0	0	
19310000000	0	0	16.1665135099644	85.1209889708172	0	0	0	0	
19320000000	0	0	16.0329241025527	4.44282658600861	0	0	0	0	
19330000000	0	0	16.0254685375696	-76.4187211740731	0	0	0	0	
19340000000	0	0	15.9478175066859	-158.730983462242	0	0	0	0	
19350000000	0	0	15.4613306012698	114.441556762954	0	0	0	0	
19360000000	0	0	15.1062357738427	19.7461294489484	0	0	0	0	
19370000000	0	0	14.8000194654466	-78.1971526992128	0	0	0	0	
19380000000	0	0	14.5919109665541	179.936463864124	0	0	0	0	
19390000000	0	0	14.9717104557947	84.1043851358744	0	0	0	0	
19400000000	0	0	15.452148175425	-5.35347539650536	0	0	0	0	
19410000000	0	0	15.6883872002924	-91.1806872551112	0	0	0	0	
19420000000	0	0	15.7790818580555	-175.253542838535	0	0	0	0	
19430000000	0	0	15.5917303858988	100.956049800049	0	0	0	0	
19440000000	0	0	15.1335141650727	14.3394004545744	0	0	0	0	
19450000000	0	0	14.5575000772519	-73.281115217249	0	0	0	0	
19460000000	0	0	14.0027627268184	-166.14258734052	0	0	0	0	
19470000000	0	0	13.9101736744663	97.3782864010937	0	0	0	0	
19480000000	0	0	14.3694834166469	0.0134918697839196	0	0	0	0	
19490000000	0	0	14.7131501800382	-95.5470815787637	0	0	0	0	
19500000000	0	0	15.3632087913356	174.361452083736	0	0	0	0	
19510000000	0	0	15.0668614799862	88.2289146963395	0	0	0	0	
19520000000	0	0	14.8547740222224	1.99151961496848	0	0	0	0	
19530000000	0	0	14.4323026635676	-80.830141224129	0	0	0	0	
19540000000	0	0	14.1729353121859	-166.968061657564	0	0	0	0	
19550000000	0	0	14.2572882758495	101.798096354901	0	0	0	0	
19560000000	0	0	14.2933985108786	5.07417213302409	0	0	0	0	
19570000000	0	0	14.6869918305545	-93.6905268541466	0	0	0	0	
19580000000	0	0	14.8287027203097	169.680485206473	0	0	0	0	
19590000000	0	0	14.8054009869848	78.8491685347847	0	0	0	0	
19600000000	0	0	14.7588912396379	-6.74216325869306	0	0	0	0	
19610000000	0	0	14.8563109695778	-89.6227844171018	0	0	0	0	
19620000000	0	0	14.6186934791739	-174.275048486718	0	0	0	0	
19630000000	0	0	14.1974294040468	99.2353384587167	0	0	0	0	
19640000000	0	0	14.204698345952	8.36373199237561	0	0	0	0	
19650000000	0	0	13.9716406838986	-86.5800373047631	0	0	0	0	
19660000000	0	0	13.9806493244882	176.798098203484	0	0	0	0	
19670000000	0	0	14.1968812570023	83.3069207354929	0	0	0	0	
19680000000	0	0	14.6257190561036	-7.08549985757451	0	0	0	0	
19690000000	0	0	14.7494529384643	-94.0965813914095	0	0	0	0	
19700000000	0	0	14.9410636784712	-179.04640630782	0	0	0	0	
19710000000	0	0	14.5731422450196	97.089086431489	0	0	0	0	
19720000000	0	0	14.0514121537271	13.7510324974422	0	0	0	0	
19730000000	0	0	13.3239225400938	-73.7553148002498	0	0	0	0	
19740000000	0	0	13.0168952931143	-162.199605726885	0	0	0	0	
19750000000	0	0	13.2022997595766	103.530113530629	0	0	0	0	
19760000000	0	0	14.1325189278589	5.66362053266613	0	0	0	0	
19770000000	0	0	14.6151940209039	-90.2849172418978	0	0	0	0	
19780000000	0	0	15.2493297026512	177.380065662756	0	0	0	0	
19790000000	0	0	15.0337564292239	89.0676678057351	0	0	0	0	
19800000000	0	0	14.8192909854467	5.72196400438149	0	0	0	0	
19810000000	0	0	14.2744923869111	-75.9642213310532	0	0	0	0	
19820000000	0	0	13.6053146492654	-158.241682750626	0	0	0	0	
19830000000	0	0	13.181619414572	114.660373924276	0	0	0	0	
19840000000	0	0	12.5102453111365	20.759985804551	0	0	0	0	
19850000000	0	0	12.6210457406597	-78.555680975442	0	0	0	0	
19860000000	0	0	13.2915492661596	-179.323857051062	0	0	0	0	
19870000000	0	0	14.3366885925769	83.3688007860397	0	0	0	0	
19880000000	0	0	14.6661903211274	-7.58702731980471	0	0	0	0	
19890000000	0	0	14.7142236515958	-89.6045381799576	0	0	0	0	
19900000000	0	0	14.6778310586608	-172.583345244767	0	0	0	0	
19910000000	0	0	14.3040298859789	106.237706838331	0	0	0	0	
19920000000	0	0	13.6815157565375	22.7524379710998	0	0	0	0	
19930000000	0	0	12.7188457287384	-63.8179487745536	0	0	0	0	
19940000000	0	0	11.4069862177603	-160.61103344864	0	0	0	0	
19950000000	0	0	10.417361759356	100.397090630267	0	0	0	0	
19960000000	0	0	11.1914761271677	-1.94260082068259	0	0	0	0	
19970000000	0	0	12.7002191531511	-94.3792541634022	0	0	0	0	
19980000000	0	0	13.5808874140011	177.367274498817	0	0	0	0	
19990000000	0	0	14.3222416760926	94.9169341585516	0	0	0	0	
20000000000	0	0	14.542250487685	14.0041958689196	0	0	0	0	
