!Agilent N9918A: A.07.57
!Date: Thursday, 03 September 2020 18:40:20
!Timezone: (GMT-08:00) Pacific Time (US & Canada)
!Model: N9918A
!Serial: MY53103598
!GPS Latitude: 
!GPS Longitude: 
!GPS TimeStamp: 0001-01-01 00:00:00Z
!GPS Seconds Since Last Read: 0
!CHECKSUM:0378942983
!Correction: S11()S21(Rdy)S12()S22()
!S2P File: Measurements:S11,S21,S12,S22:
# Hz S DB R 50
19000000000	0	0	-3.79880991121918	-105.23447044912	0	0	0	0	
19005000000	0	0	-4.02913041738122	-117.444864758866	0	0	0	0	
19010000000	0	0	-4.08715968361163	-136.800973968216	0	0	0	0	
19015000000	0	0	-4.19254036238809	-153.046405921206	0	0	0	0	
19020000000	0	0	-4.23999736565944	-167.917340151655	0	0	0	0	
19025000000	0	0	-3.8760667060067	177.033543467047	0	0	0	0	
19030000000	0	0	-4.00608199320424	159.467680515163	0	0	0	0	
19035000000	0	0	-4.01314656981603	144.773198789193	0	0	0	0	
19040000000	0	0	-3.89466838956947	125.040992226553	0	0	0	0	
19045000000	0	0	-4.61752239457885	112.006044665706	0	0	0	0	
19050000000	0	0	-4.26869749168183	98.8936011987111	0	0	0	0	
19055000000	0	0	-4.22682736601481	82.5686816405696	0	0	0	0	
19060000000	0	0	-3.79834208434935	64.6770707585385	0	0	0	0	
19065000000	0	0	-4.26883919410102	53.5459051773872	0	0	0	0	
19070000000	0	0	-3.75165740786104	38.4798278479455	0	0	0	0	
19075000000	0	0	-4.3328031297711	21.6387124735721	0	0	0	0	
19080000000	0	0	-4.28708083774583	5.1434281655057	0	0	0	0	
19085000000	0	0	-4.56872231508605	-8.28325330432466	0	0	0	0	
19090000000	0	0	-4.34077144646718	-23.2339421033652	0	0	0	0	
19095000000	0	0	-3.75735871159513	-45.8726232225581	0	0	0	0	
19100000000	0	0	-4.32656341751328	-57.418781855729	0	0	0	0	
19105000000	0	0	-3.84219808672583	-73.5341458339677	0	0	0	0	
19110000000	0	0	-4.09791784671522	-83.6977324031717	0	0	0	0	
19115000000	0	0	-3.98810779269732	-104.749987080056	0	0	0	0	
19120000000	0	0	-4.63522428889574	-121.114267701757	0	0	0	0	
19125000000	0	0	-4.38119079298701	-138.955735091792	0	0	0	0	
19130000000	0	0	-4.15402891376322	-150.505411270204	0	0	0	0	
19135000000	0	0	-3.79726879199784	-168.309357881374	0	0	0	0	
19140000000	0	0	-4.19697134633298	174.122537933494	0	0	0	0	
19145000000	0	0	-5.24240399546827	154.677549301123	0	0	0	0	
19150000000	0	0	-4.42128560646092	143.546767716318	0	0	0	0	
19155000000	0	0	-5.64977051737547	130.274382379722	0	0	0	0	
19160000000	0	0	-3.87901849910469	114.038736902675	0	0	0	0	
19165000000	0	0	-4.64089014428266	97.9510706484305	0	0	0	0	
19170000000	0	0	-4.4136255550262	83.1960173970409	0	0	0	0	
19175000000	0	0	-4.06681494846263	68.792930366699	0	0	0	0	
19180000000	0	0	-3.85959698718312	53.7742746325531	0	0	0	0	
19185000000	0	0	-3.46111005801714	37.972819070163	0	0	0	0	
19190000000	0	0	-4.15470209332086	18.567114344652	0	0	0	0	
19195000000	0	0	-4.2829670962348	5.44496305676854	0	0	0	0	
19200000000	0	0	-4.14330865400397	-7.50227725703431	0	0	0	0	
19205000000	0	0	-4.18403681666994	-27.7248910051414	0	0	0	0	
19210000000	0	0	-3.73790905465514	-42.4608602480528	0	0	0	0	
19215000000	0	0	-3.91254661528267	-58.7806634396542	0	0	0	0	
19220000000	0	0	-4.41089756177491	-73.0105177603431	0	0	0	0	
19225000000	0	0	-3.65777729027505	-92.1196619079208	0	0	0	0	
19230000000	0	0	-3.93933305164544	-100.494067744657	0	0	0	0	
19235000000	0	0	-4.65614545873081	-124.501924195141	0	0	0	0	
19240000000	0	0	-4.75012699357679	-137.957080348868	0	0	0	0	
19245000000	0	0	-3.9761360340778	-153.83305718964	0	0	0	0	
19250000000	0	0	-4.32250745501173	-169.235899723664	0	0	0	0	
19255000000	0	0	-4.62711623560087	177.99652646277	0	0	0	0	
19260000000	0	0	-4.09838429563073	160.650507827741	0	0	0	0	
19265000000	0	0	-3.75049119562538	149.621766893745	0	0	0	0	
19270000000	0	0	-4.57179559452952	130.971548164154	0	0	0	0	
19275000000	0	0	-4.39198299466163	120.51674289892	0	0	0	0	
19280000000	0	0	-4.42564991416794	106.697867014261	0	0	0	0	
19285000000	0	0	-3.97178227940821	87.3551233819974	0	0	0	0	
19290000000	0	0	-5.03203787751331	68.4495588586025	0	0	0	0	
19295000000	0	0	-4.07063137271491	57.8656831828454	0	0	0	0	
19300000000	0	0	-3.81687707383978	38.6449282888736	0	0	0	0	
19305000000	0	0	-4.21445990532583	22.7248114189198	0	0	0	0	
19310000000	0	0	-4.69333035391828	10.9581511552703	0	0	0	0	
19315000000	0	0	-3.83837138400537	-7.31907217343838	0	0	0	0	
19320000000	0	0	-3.97361475396341	-20.3027032026659	0	0	0	0	
19325000000	0	0	-3.8671074257106	-32.5912130123756	0	0	0	0	
19330000000	0	0	-4.56952279419163	-53.0930021681887	0	0	0	0	
19335000000	0	0	-4.40498756911784	-63.4681953983722	0	0	0	0	
19340000000	0	0	-4.25901318810193	-84.0614610905545	0	0	0	0	
19345000000	0	0	-4.61458909600895	-95.8637513713951	0	0	0	0	
19350000000	0	0	-4.11023238282913	-111.831857657617	0	0	0	0	
19355000000	0	0	-3.99239499903924	-127.924874040088	0	0	0	0	
19360000000	0	0	-3.52633367565812	-145.253136557596	0	0	0	0	
19365000000	0	0	-3.99362115149329	-157.560982580733	0	0	0	0	
19370000000	0	0	-4.86526532416465	-173.499515776613	0	0	0	0	
19375000000	0	0	-4.569258058607	171.68080965611	0	0	0	0	
19380000000	0	0	-4.86127983883028	154.399421634897	0	0	0	0	
19385000000	0	0	-3.96083028134528	144.129168142395	0	0	0	0	
19390000000	0	0	-3.66978005856518	122.729170095976	0	0	0	0	
19395000000	0	0	-4.20926889588015	112.514153795886	0	0	0	0	
19400000000	0	0	-3.74555377329419	94.8810183150342	0	0	0	0	
19405000000	0	0	-3.98096741356339	75.1615276414058	0	0	0	0	
19410000000	0	0	-4.02452531183713	62.3891600823964	0	0	0	0	
19415000000	0	0	-3.33207003116598	47.918860680216	0	0	0	0	
19420000000	0	0	-3.57814247418963	29.7789762312971	0	0	0	0	
19425000000	0	0	-4.10938553358759	16.6587788820529	0	0	0	0	
19430000000	0	0	-4.62601085439482	0.379029736504468	0	0	0	0	
19435000000	0	0	-3.89079530270144	-14.0630304231179	0	0	0	0	
19440000000	0	0	-4.40662139358755	-27.7104375961911	0	0	0	0	
19445000000	0	0	-4.29989239213747	-50.0596311348395	0	0	0	0	
19450000000	0	0	-4.22284576121068	-59.3120126691874	0	0	0	0	
19455000000	0	0	-4.47357763429541	-72.3253131572618	0	0	0	0	
19460000000	0	0	-4.27732546796044	-90.0414894248728	0	0	0	0	
19465000000	0	0	-4.15334981203236	-105.919659060856	0	0	0	0	
19470000000	0	0	-3.66105814597406	-123.507162544624	0	0	0	0	
19475000000	0	0	-4.08841914692527	-132.823857874178	0	0	0	0	
19480000000	0	0	-4.20195550756418	-149.254204554093	0	0	0	0	
19485000000	0	0	-4.72929089050616	-169.946674064433	0	0	0	0	
19490000000	0	0	-3.99522069869487	175.465585671835	0	0	0	0	
19495000000	0	0	-3.83989782847545	162.473098237811	0	0	0	0	
19500000000	0	0	-4.28053824471397	152.020043546091	0	0	0	0	
19505000000	0	0	-4.42435355320426	124.151236372291	0	0	0	0	
19510000000	0	0	-3.79698971658982	121.449386125964	0	0	0	0	
19515000000	0	0	-5.00217111147431	98.0097949661654	0	0	0	0	
19520000000	0	0	-3.80193341335305	85.1237097700263	0	0	0	0	
19525000000	0	0	-3.64648540151115	66.1147719509978	0	0	0	0	
19530000000	0	0	-4.29273339430105	55.8807371204188	0	0	0	0	
19535000000	0	0	-3.47712792615496	38.5402975935618	0	0	0	0	
19540000000	0	0	-4.65590366763513	24.0295192751249	0	0	0	0	
19545000000	0	0	-4.19585494375756	8.25489365792204	0	0	0	0	
19550000000	0	0	-4.78343869354083	-7.93308757245266	0	0	0	0	
19555000000	0	0	-4.1605703442792	-23.8647885138747	0	0	0	0	
19560000000	0	0	-4.99762742066978	-33.1864251779096	0	0	0	0	
19565000000	0	0	-4.61994609204076	-55.9856321726329	0	0	0	0	
19570000000	0	0	-4.31134608208295	-68.3428486407363	0	0	0	0	
19575000000	0	0	-4.53377612109844	-80.6184335695901	0	0	0	0	
19580000000	0	0	-4.05127593095221	-99.6105059622509	0	0	0	0	
19585000000	0	0	-4.16787447968075	-111.284710156434	0	0	0	0	
19590000000	0	0	-4.13012279714179	-132.874358906205	0	0	0	0	
19595000000	0	0	-3.99849992436971	-143.882153024824	0	0	0	0	
19600000000	0	0	-4.63629189770772	-161.276420015491	0	0	0	0	
19605000000	0	0	-3.8497466741386	-169.201047822227	0	0	0	0	
19610000000	0	0	-3.78921068668009	165.765239951182	0	0	0	0	
19615000000	0	0	-4.40004388224922	151.568832737484	0	0	0	0	
19620000000	0	0	-4.49910168303005	140.545773455239	0	0	0	0	
19625000000	0	0	-4.48114751420558	121.466530245952	0	0	0	0	
19630000000	0	0	-3.63657468497249	103.217735563863	0	0	0	0	
19635000000	0	0	-3.4839189945716	91.3569721233701	0	0	0	0	
19640000000	0	0	-4.36841614442738	73.0993358745604	0	0	0	0	
19645000000	0	0	-3.79849641600871	57.9220322962242	0	0	0	0	
19650000000	0	0	-4.43346877429686	42.0879987908163	0	0	0	0	
19655000000	0	0	-4.31994828514832	30.0897993855203	0	0	0	0	
19660000000	0	0	-4.69242386339301	14.6241476632298	0	0	0	0	
19665000000	0	0	-4.75397980963673	2.70589969520863	0	0	0	0	
19670000000	0	0	-4.18639073080471	-16.2805126078121	0	0	0	0	
19675000000	0	0	-4.1845551458214	-28.8532605693	0	0	0	0	
19680000000	0	0	-4.09824745977928	-47.5568964689572	0	0	0	0	
19685000000	0	0	-4.17923348485359	-63.6505640781475	0	0	0	0	
19690000000	0	0	-4.62482558898936	-77.9769795011259	0	0	0	0	
19695000000	0	0	-4.04727505706607	-95.5782424163513	0	0	0	0	
19700000000	0	0	-3.77614187469944	-104.83098964636	0	0	0	0	
19705000000	0	0	-2.76220517911303	-122.291607061297	0	0	0	0	
19710000000	0	0	-4.33433064011162	-144.112388039365	0	0	0	0	
19715000000	0	0	-4.16215111641342	-154.65880559138	0	0	0	0	
19720000000	0	0	-4.03466295874779	-167.091528012146	0	0	0	0	
19725000000	0	0	-3.94601819770702	174.216288776067	0	0	0	0	
19730000000	0	0	-3.56437077118015	158.689419445977	0	0	0	0	
19735000000	0	0	-4.20605855204001	144.330199637947	0	0	0	0	
19740000000	0	0	-3.89169994808766	128.516344893136	0	0	0	0	
19745000000	0	0	-4.56787059455877	110.531500308234	0	0	0	0	
19750000000	0	0	-4.49235760363741	99.9723034839881	0	0	0	0	
19755000000	0	0	-4.3361155285019	85.6113914728624	0	0	0	0	
19760000000	0	0	-4.73598672192179	66.42629123978	0	0	0	0	
19765000000	0	0	-4.51514950513285	50.5280762315197	0	0	0	0	
19770000000	0	0	-3.96532889630387	35.834433851936	0	0	0	0	
19775000000	0	0	-4.42628463400428	19.3660716995441	0	0	0	0	
19780000000	0	0	-4.0584755732002	6.54881108999181	0	0	0	0	
19785000000	0	0	-3.72082238535596	-11.9515718679803	0	0	0	0	
19790000000	0	0	-3.91518543206487	-25.0176560616215	0	0	0	0	
19795000000	0	0	-4.20904916797271	-42.3719108800342	0	0	0	0	
19800000000	0	0	-4.64780105070026	-55.7029877228978	0	0	0	0	
19805000000	0	0	-5.20587694840288	-78.5823476375569	0	0	0	0	
19810000000	0	0	-4.69412958615836	-80.6990333030322	0	0	0	0	
19815000000	0	0	-4.6695024959789	-106.173612680235	0	0	0	0	
19820000000	0	0	-4.93300540265096	-117.037558147329	0	0	0	0	
19825000000	0	0	-4.36523743501787	-130.562628506182	0	0	0	0	
19830000000	0	0	-4.97147554057568	-147.358807515575	0	0	0	0	
19835000000	0	0	-4.45406236462924	-164.695663368174	0	0	0	0	
19840000000	0	0	-5.13810304547259	179.552119989141	0	0	0	0	
19845000000	0	0	-4.62593638222368	164.705580427521	0	0	0	0	
19850000000	0	0	-4.63064424417791	144.033594081545	0	0	0	0	
19855000000	0	0	-4.85016555997756	132.619496665625	0	0	0	0	
19860000000	0	0	-4.13808144904475	118.484841177262	0	0	0	0	
19865000000	0	0	-4.98866197478063	98.8564322731166	0	0	0	0	
19870000000	0	0	-4.67059161123242	85.9262307868886	0	0	0	0	
19875000000	0	0	-5.03452578058551	71.6052921421927	0	0	0	0	
19880000000	0	0	-4.47922951401542	57.0698851388774	0	0	0	0	
19885000000	0	0	-4.13591795992471	36.3034114059624	0	0	0	0	
19890000000	0	0	-4.0659139273062	23.1724326050826	0	0	0	0	
19895000000	0	0	-3.93627943269243	11.2577394904918	0	0	0	0	
19900000000	0	0	-4.72541911188071	-8.5038223478757	0	0	0	0	
19905000000	0	0	-4.82903669606326	-23.1275953340222	0	0	0	0	
19910000000	0	0	-4.675692065849	-37.4129344769965	0	0	0	0	
19915000000	0	0	-4.90110819635889	-52.0927288378532	0	0	0	0	
19920000000	0	0	-4.46761244856507	-71.6544161718694	0	0	0	0	
19925000000	0	0	-4.48685572576658	-85.4128609149995	0	0	0	0	
19930000000	0	0	-4.52628069032145	-96.7457607926235	0	0	0	0	
19935000000	0	0	-5.12536495121918	-114.741317343382	0	0	0	0	
19940000000	0	0	-5.02140576106389	-131.64729096058	0	0	0	0	
19945000000	0	0	-4.2803804379154	-145.505206586365	0	0	0	0	
19950000000	0	0	-4.30954814546082	-162.41426749772	0	0	0	0	
19955000000	0	0	-4.805265573385	-177.224927739987	0	0	0	0	
19960000000	0	0	-4.24684673339483	164.966940005403	0	0	0	0	
19965000000	0	0	-4.4258584433972	153.62022491316	0	0	0	0	
19970000000	0	0	-4.99166526400053	131.872086351698	0	0	0	0	
19975000000	0	0	-5.06776857898483	117.76795133598	0	0	0	0	
19980000000	0	0	-4.28760171096368	105.068392098539	0	0	0	0	
19985000000	0	0	-4.65367305011121	91.1010902545316	0	0	0	0	
19990000000	0	0	-4.57568356686569	76.2563505218132	0	0	0	0	
19995000000	0	0	-4.89312787859468	60.7422472905112	0	0	0	0	
20000000000	0	0	-4.75977040267327	44.766593548097	0	0	0	0	
